15:32:01.438 -> ESP8266 MQTT to RS485 DTSU666 Emulator
15:32:01.438 -> DTSU666 Slave Address: 4
15:32:01.482 -> 
15:32:01.482 -> Connecting to Wifipoint
15:32:02.047 -> .......
15:32:05.810 -> WiFi connected
15:32:05.810 -> IP address: 192.168.14.89
15:32:05.810 -> Attempting MQTT connection...connected
15:32:05.810 -> ESP8266 MQTT to RS485 DTSU666 Emulator initialized
15:32:05.854 -> RS485 RX: 04 03 00 06 00 02 24 5F 04 03 00 06 00 02 24 5F 04 03 00 06 00 02 24 5F 04 03 00 06 00 02 24 5F 04 03 00 06 00 02 24 5F 04 03 00 06 00 02 24 5F 04 03 00 06 00 02 24 5F 04 03 00 06 00 02 24 5F 
15:32:06.488 -> RS485 RX: 04 03 00 06 00 02 24 5F 
15:32:06.488 -> RS485 TX: 04 03 04 00 0A 00 01 4E F1 
15:32:06.579 -> RS485 RX: 04 03 20 12 00 10 EF 96 
15:32:06.653 -> RS485 TX: 04 03 20 00 00 00 00 00 00 00 00 00 00 00 00 00 00 00 00 00 00 00 00 00 00 00 00 00 00 00 00 00 00 00 00 0B 7A 
15:32:06.741 -> RS485 RX: 04 03 20 00 00 12 CE 52 
15:32:06.789 -> RS485 TX: 04 03 24 43 BE 00 00 43 BE 00 00 43 BE 00 00 43 5C 00 00 43 5C 00 00 43 5C 00 00 00 00 00 00 00 00 00 00 00 00 00 00 C9 D6 
15:32:06.921 -> RS485 RX: 04 03 20 12 00 10 EF 96 
15:32:06.974 -> RS485 TX: 04 03 20 00 00 00 00 00 00 00 00 00 00 00 00 00 00 00 00 00 00 00 00 00 00 00 00 00 00 00 00 00 00 00 00 0B 7A 
15:32:07.058 -> RS485 RX: 04 03 20 2A 00 1C 6E 5E 
15:32:07.107 -> RS485 TX: 04 03 38 3A 83 12 6F 3A 83 12 6F 3A 83 12 6F 3A 83 12 6F 00 00 00 00 00 00 00 00 00 00 00 00 00 00 00 00 00 00 00 00 00 00 00 00 00 00 00 00 00 00 00 00 00 00 00 00 42 48 00 00 21 63 
15:32:07.236 -> RS485 RX: 04 03 20 12 00 10 EF 96 
15:32:07.275 -> RS485 TX: 04 03 20 00 00 00 00 00 00 00 00 00 00 00 00 00 00 00 00 00 00 00 00 00 00 00 00 00 00 00 00 00 00 00 00 0B 7A 
15:32:07.367 -> RS485 RX: 04 03 10 1E 00 0C 21 5C 
15:32:07.415 -> RS485 TX: 04 03 18 00 00 00 00 00 00 00 00 00 00 00 00 00 00 00 00 00 00 00 00 00 00 00 00 6C FD 
15:32:07.415 -> Message arrived [dtsu666/data] {"voltage_ab":420.1000061,"voltage_bc":420.6000061,"voltage_ca":421.1000061,"voltage_a":242.8999939,"voltage_b":242.3000031,"voltage_c":243.3999939,"current_a":1.050999999,"current_b":1.225000024,"current_c":1.036000013,"active_power_total":-182.6000061,"active_power_a":162.3999939,"active_power_b":-143.8000031,"active_power_c":-205.3000031,"reactive_power_total":-273.3999939,"reactive_power_a":54.29999924,"reactive_power_b":-202,"reactive_power_c":-125.6999969,"power_factor_total":-0.277999997,"power_factor_a":0.611000001,"power_factor_b":-0.497000009,"power_factor_c":-0.819999993,"frequency":50.00999832,"forward_active_energy_total":192.9100037,"reverse_active_energy_total":281.0400085}
15:32:07.462 -> Meter values updated from MQTT
15:32:07.590 -> RS485 RX: 04 03 20 12 00 10 EF 96 
15:32:07.634 -> RS485 TX: 04 03 20 C3 36 99 9A 43 22 66 66 C3 0F CC CD C3 4D 4C CD C3 88 B3 33 42 59 33 33 C3 4A 00 00 C2 FB 66 66 2F E3 
15:32:07.718 -> RS485 RX: 04 03 00 06 00 02 24 5F 
15:32:07.766 -> RS485 TX: 04 03 04 00 0A 00 01 4E F1 
15:32:07.852 -> RS485 RX: 04 03 20 12 00 10 EF 96 
15:32:07.900 -> RS485 TX: 04 03 20 C3 36 99 9A 43 22 66 66 C3 0F CC CD C3 4D 4C CD C3 88 B3 33 42 59 33 33 C3 4A 00 00 C2 FB 66 66 2F E3 
15:32:07.984 -> RS485 RX: 04 03 20 00 00 12 CE 52 
15:32:08.071 -> RS485 TX: 04 03 24 43 D2 0C CD 43 D2 4C CD 43 D2 8C CD 43 72 E6 66 43 72 4C CD 43 73 66 66 3F 86 87 2B 3F 9C CC CD 3F 84 9B A6 FD 03 
15:32:08.162 -> RS485 RX: 04 03 20 12 00 10 EF 96 
15:32:08.201 -> RS485 TX: 04 03 20 C3 36 99 9A 43 22 66 66 C3 0F CC CD C3 4D 4C CD C3 88 B3 33 42 59 33 33 C3 4A 00 00 C2 FB 66 66 2F E3 
15:32:08.293 -> RS485 RX: 04 03 20 2A 00 1C 6E 5E 
15:32:08.381 -> RS485 TX: 04 03 38 B9 91 C0 87 3A 20 2B 84 BA 02 49 1B BA 56 F5 45 00 00 00 00 00 00 00 00 00 00 00 00 00 00 00 00 00 00 00 00 00 00 00 00 00 00 00 00 00 00 00 00 00 00 00 00 42 48 0A 3D 01 41 
15:32:08.474 -> RS485 RX: 04 03 20 12 00 10 EF 96 
15:32:08.527 -> RS485 TX: 04 03 20 C3 36 99 9A 43 22 66 66 C3 0F CC CD C3 4D 4C CD C3 88 B3 33 42 59 33 33 C3 4A 00 00 C2 FB 66 66 2F E3 
15:32:08.646 -> RS485 RX: 04 03 10 1E 00 0C 21 5C 
15:32:08.696 -> RS485 TX: 04 03 18 00 02 F1 8E 00 00 00 00 00 00 00 00 00 00 00 00 00 00 00 00 00 04 49 D0 DD 28 
15:32:08.777 -> RS485 RX: 04 03 20 12 00 10 EF 96 
15:32:08.827 -> RS485 TX: 04 03 20 C3 36 99 9A 43 22 66 66 C3 0F CC CD C3 4D 4C CD C3 88 B3 33 42 59 33 33 C3 4A 00 00 C2 FB 66 66 2F E3 
15:32:08.916 -> RS485 RX: 04 03 00 06 00 02 24 5F 
15:32:08.960 -> RS485 TX: 04 03 04 00 0A 00 01 4E F1 
15:32:08.960 -> Message arrived [dtsu666/data] {"voltage_ab":420.2000122,"voltage_bc":420.7999878,"voltage_ca":421.3999939,"voltage_a":243,"voltage_b":242.3000031,"voltage_c":243.6000061,"current_a":0.98299998,"current_b":1.184000015,"current_c":1.029999971,"active_power_total":-194.1999969,"active_power_a":147,"active_power_b":-135.5,"active_power_c":-205.8000031,"reactive_power_total":-272.8999939,"reactive_power_a":57.40000153,"reactive_power_b":-205.3999939,"reactive_power_c":-124.9000015,"power_factor_total":-0.231999993,"power_factor_a":0.629000008,"power_factor_b":-0.488000005,"power_factor_c":-0.81400001,"frequency":50.00999832,"forward_active_energy_total":192.9100037,"reverse_active_energy_total":281.0400085}
15:32:08.999 -> Meter values updated from MQTT
15:32:09.087 -> RS485 RX: 04 03 20 12 00 10 EF 96 
15:32:09.175 -> RS485 TX: 04 03 20 C3 42 33 33 43 13 00 00 C3 07 80 00 C3 4D CC CD C3 88 73 33 42 65 99 9A C3 4D 66 66 C2 F9 CC CD 79 38 
15:32:09.654 -> RS485 RX: 04 03 20 12 00 10 EF 96 
15:32:09.698 -> RS485 TX: 04 03 20 C3 42 33 33 43 13 00 00 C3 07 80 00 C3 4D CC CD C3 88 73 33 42 65 99 9A C3 4D 66 66 C2 F9 CC CD 79 38 
15:32:09.786 -> RS485 RX: 04 03 20 00 00 12 CE 52 
15:32:09.872 -> RS485 TX: 04 03 24 43 D2 19 9A 43 D2 66 66 43 D2 B3 33 43 73 00 00 43 72 4C CD 43 73 99 9A 3F 7B A5 E3 3F 97 8D 50 3F 83 D7 0A 94 B6 
15:32:10.473 -> RS485 RX: 04 03 20 00 00 12 CE 52 
15:32:10.514 -> RS485 TX: 04 03 24 43 D2 19 9A 43 D2 66 66 43 D2 B3 33 43 73 00 00 43 72 4C CD 43 73 99 9A 3F 7B A5 E3 3F 97 8D 50 3F 83 D7 0A 94 B6 
15:32:10.599 -> RS485 RX: 04 03 20 12 00 10 EF 96 
15:32:10.643 -> RS485 TX: 04 03 20 C3 42 33 33 43 13 00 00 C3 07 80 00 C3 4D CC CD C3 88 73 33 42 65 99 9A C3 4D 66 66 C2 F9 CC CD 79 38 
15:32:10.691 -> Message arrived [dtsu666/data] {"voltage_ab":420.1000061,"voltage_bc":420.5,"voltage_ca":421.2000122,"voltage_a":243,"voltage_b":242.1999969,"voltage_c":243.3999939,"current_a":1.011999965,"current_b":1.199000001,"current_c":1.041000009,"active_power_total":-196.6999969,"active_power_a":150.8999939,"active_power_b":-141.1000061,"active_power_c":-206.5,"reactive_power_total":-269.8999939,"reactive_power_a":58.79999924,"reactive_power_b":-203.8000031,"reactive_power_c":-124.9000015,"power_factor_total":-0.25,"power_factor_a":0.616999984,"power_factor_b":-0.488000005,"power_factor_c":-0.816999972,"frequency":50.00999832,"forward_active_energy_total":192.9100037,"reverse_active_energy_total":281.0400085}
15:32:10.739 -> Meter values updated from MQTT
15:32:10.826 -> RS485 RX: 04 03 20 2A 00 1C 6E 5E 
15:32:10.906 -> RS485 TX: 04 03 38 B9 83 12 6F 3A 21 BE 2B B9 FF DA 41 BA 56 2B F1 00 00 00 00 00 00 00 00 00 00 00 00 00 00 00 00 00 00 00 00 00 00 00 00 00 00 00 00 00 00 00 00 00 00 00 00 42 48 0A 3D 63 08 
15:32:10.998 -> RS485 RX: 04 03 20 12 00 10 EF 96 
15:32:11.046 -> RS485 TX: 04 03 20 C3 44 B3 33 43 16 E6 66 C3 0D 19 9A C3 4E 80 00 C3 86 F3 33 42 6B 33 33 C3 4B CC CD C2 F9 CC CD A3 A3 
15:32:11.667 -> RS485 RX: 04 03 20 12 00 10 EF 96 
15:32:11.716 -> RS485 TX: 04 03 20 C3 44 B3 33 43 16 E6 66 C3 0D 19 9A C3 4E 80 00 C3 86 F3 33 42 6B 33 33 C3 4B CC CD C2 F9 CC CD A3 A3 
15:32:11.810 -> RS485 RX: 04 03 10 1E 00 0C 21 5C 
15:32:11.854 -> RS485 TX: 04 03 18 00 02 F1 8E 00 00 00 00 00 00 00 00 00 00 00 00 00 00 00 00 00 04 49 D0 DD 28 
15:32:11.944 -> RS485 RX: 04 03 20 12 00 10 EF 96 
15:32:11.988 -> RS485 TX: 04 03 20 C3 44 B3 33 43 16 E6 66 C3 0D 19 9A C3 4E 80 00 C3 86 F3 33 42 6B 33 33 C3 4B CC CD C2 F9 CC CD A3 A3 
15:32:12.075 -> RS485 RX: 04 03 00 06 00 02 24 5F 
15:32:12.123 -> RS485 TX: 04 03 04 00 0A 00 01 4E F1 
15:32:12.216 -> RS485 RX: 04 03 20 12 00 10 EF 96 
15:32:12.257 -> RS485 TX: 04 03 20 C3 44 B3 33 43 16 E6 66 C3 0D 19 9A C3 4E 80 00 C3 86 F3 33 42 6B 33 33 C3 4B CC CD C2 F9 CC CD A3 A3 
15:32:12.257 -> Message arrived [dtsu666/data] {"voltage_ab":420.1000061,"voltage_bc":420.3999939,"voltage_ca":421,"voltage_a":242.8999939,"voltage_b":242.1999969,"voltage_c":243.3999939,"current_a":0.977999985,"current_b":1.18900001,"current_c":1.026000023,"active_power_total":-198.5,"active_power_a":147.1999969,"active_power_b":-141.1000061,"active_power_c":-204.6000061,"reactive_power_total":-274.8999939,"reactive_power_a":55.90000153,"reactive_power_b":-204.6999969,"reactive_power_c":-126.0999985,"power_factor_total":-0.254999995,"power_factor_a":0.623000026,"power_factor_b":-0.49000001,"power_factor_c":-0.819000006,"frequency":50.00999832,"forward_active_energy_total":192.9100037,"reverse_active_energy_total":281.0400085}
15:32:12.343 -> Meter values updated from MQTT
15:32:12.419 -> RS485 RX: 04 03 20 00 00 12 CE 52 
15:32:12.464 -> RS485 TX: 04 03 24 43 D2 0C CD 43 D2 33 33 43 D2 80 00 43 72 E6 66 43 72 33 33 43 73 66 66 3F 7A 5E 35 3F 98 31 27 3F 83 53 F8 10 4E 
15:32:12.599 -> RS485 RX: 04 03 20 12 00 10 EF 96 
15:32:12.643 -> RS485 TX: 04 03 20 C3 46 80 00 43 13 33 33 C3 0D 19 9A C3 4C 99 9A C3 89 73 33 42 5F 99 9A C3 4C B3 33 C2 FC 33 33 60 1B 
15:32:12.738 -> RS485 RX: 04 03 20 2A 00 1C 6E 5E 
15:32:12.826 -> RS485 TX: 04 03 38 B9 85 B1 85 3A 23 50 D3 BA 00 73 58 BA 56 B2 29 00 00 00 00 00 00 00 00 00 00 00 00 00 00 00 00 00 00 00 00 00 00 00 00 00 00 00 00 00 00 00 00 00 00 00 00 42 48 0A 3D 17 9B 
15:32:12.914 -> RS485 RX: 04 03 20 12 00 10 EF 96 
15:32:12.958 -> RS485 TX: 04 03 20 C3 46 80 00 43 13 33 33 C3 0D 19 9A C3 4C 99 9A C3 89 73 33 42 5F 99 9A C3 4C B3 33 C2 FC 33 33 60 1B 
15:32:13.189 -> RS485 RX: 04 03 10 1E 00 0C 21 5C 
15:32:13.189 -> RS485 TX: 04 03 18 00 02 F1 8E 00 00 00 00 00 00 00 00 00 00 00 00 00 00 00 00 00 04 49 D0 DD 28 
15:32:13.325 -> RS485 RX: 04 03 20 12 00 10 EF 96 
15:32:13.369 -> RS485 TX: 04 03 20 C3 46 80 00 43 13 33 33 C3 0D 19 9A C3 4C 99 9A C3 89 73 33 42 5F 99 9A C3 4C B3 33 C2 FC 33 33 60 1B 
15:32:13.472 -> RS485 RX: 04 03 00 06 00 02 24 5F 
15:32:13.472 -> RS485 TX: 04 03 04 00 0A 00 01 4E F1 
15:32:13.553 -> RS485 RX: 04 03 20 12 00 10 EF 96 
15:32:13.633 -> RS485 TX: 04 03 20 C3 46 80 00 43 13 33 33 C3 0D 19 9A C3 4C 99 9A C3 89 73 33 42 5F 99 9A C3 4C B3 33 C2 FC 33 33 60 1B 
15:32:13.721 -> RS485 RX: 04 03 20 00 00 12 CE 52 
15:32:13.769 -> RS485 TX: 04 03 24 43 D2 0C CD 43 D2 33 33 43 D2 80 00 43 72 E6 66 43 72 33 33 43 73 66 66 3F 7A 5E 35 3F 98 31 27 3F 83 53 F8 10 4E 
15:32:13.861 -> RS485 RX: 04 03 20 12 00 10 EF 96 
15:32:13.940 -> RS485 TX: 04 03 20 C3 46 80 00 43 13 33 33 C3 0D 19 9A C3 4C 99 9A C3 89 73 33 42 5F 99 9A C3 4C B3 33 C2 FC 33 33 60 1B 
15:32:13.940 -> Message arrived [dtsu666/data] {"voltage_ab":420.1000061,"voltage_bc":420.6000061,"voltage_ca":421.1000061,"voltage_a":242.8999939,"voltage_b":242.3000031,"voltage_c":243.3999939,"current_a":1.01699996,"current_b":1.202999949,"current_c":1.036999941,"active_power_total":-191.1999969,"active_power_a":153.6999969,"active_power_b":-145.3000031,"active_power_c":-205.5,"reactive_power_total":-281.8999939,"reactive_power_a":55.90000153,"reactive_power_b":-208.6999969,"reactive_power_c":-129.1999969,"power_factor_total":-0.245000005,"power_factor_a":0.625,"power_factor_b":-0.495999992,"power_factor_c":-0.81099999,"frequency":50.00999832,"forward_active_energy_total":192.9100037,"reverse_active_energy_total":281.0400085}
15:32:13.980 -> Meter values updated from MQTT
15:32:14.109 -> RS485 RX: 04 03 20 2A 00 1C 6E 5E 
15:32:14.157 -> RS485 TX: 04 03 38 B9 80 73 58 3A 23 D7 0A BA 02 05 FF BA 54 99 4A 00 00 00 00 00 00 00 00 00 00 00 00 00 00 00 00 00 00 00 00 00 00 00 00 00 00 00 00 00 00 00 00 00 00 00 00 42 48 0A 3D 86 6F 
15:32:14.289 -> RS485 RX: 04 03 20 12 00 10 
15:32:14.377 -> RS485 RX: EF 96 
15:32:14.873 -> RS485 RX: 04 03 20 12 00 10 
15:32:14.959 -> RS485 RX: EF 96 
15:32:15.452 -> RS485 RX: 04 03 20 12 00 10 
15:32:15.577 -> RS485 RX: EF 96 
15:32:15.577 -> Message arrived [dtsu666/data] {"voltage_ab":420.2000122,"voltage_bc":420.7999878,"voltage_ca":421.3999939,"voltage_a":243,"voltage_b":242.3000031,"voltage_c":243.6000061,"current_a":0.989000022,"current_b":1.199000001,"current_c":1.036999941,"active_power_total":-201,"active_power_a":150.5,"active_power_b":-145.3999939,"active_power_c":-206.1000061,"reactive_power_total":-276.2999878,"reactive_power_a":55.5,"reactive_power_b":-204.3000031,"reactive_power_c":-127.5,"power_factor_total":-0.250999987,"power_factor_a":0.619000018,"power_factor_b":-0.479999989,"power_factor_c":-0.813000023,"frequency":50.00999832,"forward_active_energy_total":192.9100037,"reverse_active_energy_total":281.0400085}
15:32:15.620 -> Meter values updated from MQTT
15:32:16.120 -> RS485 RX: 04 03 20 12 00 10 EF 96 
15:32:16.160 -> RS485 TX: 04 03 20 C3 49 00 00 43 16 80 00 C3 11 66 66 C3 4E 19 9A C3 8A 26 66 42 5E 00 00 C3 4C 4C CD C2 FF 00 00 85 B3 
15:32:16.292 -> RS485 RX: 04 03 10 1E 00 0C 21 5C 
15:32:16.325 -> RS485 TX: 04 03 18 00 02 F1 8E 00 00 00 00 00 00 00 00 00 00 00 00 00 00 00 00 00 04 49 D0 DD 28 
15:32:16.412 -> RS485 RX: 04 03 20 12 00 10 EF 96 
15:32:16.457 -> RS485 TX: 04 03 20 C3 49 00 00 43 16 80 00 C3 11 66 66 C3 4E 19 9A C3 8A 26 66 42 5E 00 00 C3 4C 4C CD C2 FF 00 00 85 B3 
15:32:16.553 -> RS485 RX: 04 03 00 06 00 02 24 5F 
15:32:16.597 -> RS485 TX: 04 03 04 00 0A 00 01 4E F1 
15:32:16.686 -> RS485 RX: 04 03 20 12 00 10 EF 96 
15:32:16.729 -> RS485 TX: 04 03 20 C3 49 00 00 43 16 80 00 C3 11 66 66 C3 4E 19 9A C3 8A 26 66 42 5E 00 00 C3 4C 4C CD C2 FF 00 00 85 B3 
15:32:16.858 -> RS485 RX: 04 03 20 00 00 12 CE 52 
15:32:16.906 -> RS485 TX: 04 03 24 43 D2 19 9A 43 D2 66 66 43 D2 B3 33 43 73 00 00 43 72 4C CD 43 73 99 9A 3F 7D 2F 1B 3F 99 78 D5 3F 84 BC 6A 66 50 
15:32:16.994 -> RS485 RX: 04 03 20 12 00 10 EF 96 
15:32:17.041 -> RS485 TX: 04 03 20 C3 49 00 00 43 16 80 00 C3 11 66 66 C3 4E 19 9A C3 8A 26 66 42 5E 00 00 C3 4C 4C CD C2 FF 00 00 85 B3 
15:32:17.129 -> RS485 RX: 04 03 20 2A 00 1C 6E 5E 
15:32:17.221 -> RS485 TX: 04 03 38 B9 83 98 A6 3A 22 44 63 B9 FB A8 82 BA 55 1F 82 00 00 00 00 00 00 00 00 00 00 00 00 00 00 00 00 00 00 00 00 00 00 00 00 00 00 00 00 00 00 00 00 00 00 00 00 42 48 0A 3D 24 F2 
15:32:17.337 -> RS485 RX: 04 03 20 12 00 10 EF 96 
15:32:17.389 -> RS485 TX: 04 03 20 C3 49 00 00 43 16 80 00 C3 11 66 66 C3 4E 19 9A C3 8A 26 66 42 5E 00 00 C3 4C 4C CD C2 FF 00 00 85 B3 
15:32:17.389 -> Message arrived [dtsu666/data] {"voltage_ab":420.2000122,"voltage_bc":420.7999878,"voltage_ca":421.3999939,"voltage_a":243,"voltage_b":242.3000031,"voltage_c":243.6000061,"current_a":1.004999995,"current_b":1.231999993,"current_c":1.042999983,"active_power_total":-199.6999969,"active_power_a":150.1999969,"active_power_b":-144.1999969,"active_power_c":-205.8000031,"reactive_power_total":-289.8999939,"reactive_power_a":53,"reactive_power_b":-213.1000061,"reactive_power_c":-129.8000031,"power_factor_total":-0.25,"power_factor_a":0.620999992,"power_factor_b":-0.481999993,"power_factor_c":-0.809000015,"frequency":50.00999832,"forward_active_energy_total":192.9100037,"reverse_active_energy_total":281.0400085}
15:32:17.433 -> Meter values updated from MQTT
15:32:17.529 -> RS485 RX: 04 03 10 1E 00 0C 21 5C 
15:32:17.569 -> RS485 TX: 04 03 18 00 02 F1 8E 00 00 00 00 00 00 00 00 00 00 00 00 00 00 00 00 00 04 49 D0 DD 28 
15:32:17.707 -> RS485 RX: 04 03 20 12 00 10 EF 96 
15:32:17.751 -> RS485 TX: 04 03 20 C3 47 B3 33 43 16 33 33 C3 10 33 33 C3 4D CC CD C3 90 F3 33 42 54 00 00 C3 55 19 9A C3 01 CC CD BD A2 
15:32:17.829 -> RS485 RX: 04 03 00 06 00 02 24 5F 
15:32:17.873 -> RS485 TX: 04 03 04 00 0A 00 01 4E F1 
15:32:18.457 -> RS485 RX: 04 03 00 06 00 02 24 5F 
15:32:18.457 -> RS485 TX: 04 03 04 00 0A 00 01 4E F1 
15:32:18.578 -> RS485 RX: 04 03 20 12 00 10 EF 96 
15:32:18.623 -> RS485 TX: 04 03 20 C3 47 B3 33 43 16 33 33 C3 10 33 33 C3 4D CC CD C3 90 F3 33 42 54 00 00 C3 55 19 9A C3 01 CC CD BD A2 
15:32:18.709 -> RS485 RX: 04 03 20 00 00 12 CE 52 
15:32:18.797 -> RS485 TX: 04 03 24 43 D2 19 9A 43 D2 66 66 43 D2 B3 33 43 73 00 00 43 72 4C CD 43 73 99 9A 3F 80 A3 D7 3F 9D B2 2D 3F 85 81 06 28 EE 
15:32:18.889 -> RS485 RX: 04 03 20 12 00 10 EF 96 
15:32:18.933 -> RS485 TX: 04 03 20 C3 47 B3 33 43 16 33 33 C3 10 33 33 C3 4D CC CD C3 90 F3 33 42 54 00 00 C3 55 19 9A C3 01 CC CD BD A2 
15:32:18.933 -> Message arrived [dtsu666/data] {"voltage_ab":420.2000122,"voltage_bc":420.7000122,"voltage_ca":421.2999878,"voltage_a":243,"voltage_b":242.3000031,"voltage_c":243.6000061,"current_a":1.003999949,"current_b":1.187000036,"current_c":1.023000002,"active_power_total":-194.3999939,"active_power_a":154,"active_power_b":-143.1999969,"active_power_c":-205.1999969,"reactive_power_total":-273.8999939,"reactive_power_a":58.09999847,"reactive_power_b":-206.3000031,"reactive_power_c":-125.5999985,"power_factor_total":-0.248999998,"power_factor_a":0.630999982,"power_factor_b":-0.497000009,"power_factor_c":-0.824000001,"frequency":50.00999832,"forward_active_energy_total":192.9100037,"reverse_active_energy_total":281.0400085}
15:32:19.014 -> Meter values updated from MQTT
15:32:19.106 -> RS485 RX: 04 03 20 2A 00 1C 6E 5E 
15:32:19.189 -> RS485 TX: 04 03 38 B9 82 8C 37 3A 25 69 B1 BA 02 49 1B BA 58 01 B4 00 00 00 00 00 00 00 00 00 00 00 00 00 00 00 00 00 00 00 00 00 00 00 00 00 00 00 00 00 00 00 00 00 00 00 00 42 48 0A 3D A4 6C 
15:32:19.279 -> RS485 RX: 04 03 20 12 00 10 EF 96 
15:32:19.321 -> RS485 TX: 04 03 20 C3 42 66 66 43 1A 00 00 C3 0F 33 33 C3 4D 33 33 C3 88 F3 33 42 68 66 66 C3 4E 4C CD C2 FB 33 33 F5 16 
15:32:19.453 -> RS485 RX: 04 03 10 1E 00 0C 21 5C 
15:32:19.494 -> RS485 TX: 04 03 18 00 02 F1 8E 00 00 00 00 00 00 00 00 00 00 00 00 00 00 00 00 00 04 49 D0 DD 28 
15:32:19.570 -> RS485 RX: 04 03 20 12 00 10 EF 96 
15:32:19.618 -> RS485 TX: 04 03 20 C3 42 66 66 43 1A 00 00 C3 0F 33 33 C3 4D 33 33 C3 88 F3 33 42 68 66 66 C3 4E 4C CD C2 FB 33 33 F5 16 
15:32:19.713 -> RS485 RX: 04 03 00 06 00 02 24 5F 
15:32:19.757 -> RS485 TX: 04 03 04 00 0A 00 01 4E F1 
15:32:19.845 -> RS485 RX: 04 03 20 12 00 10 EF 96 
15:32:19.890 -> RS485 TX: 04 03 20 C3 42 66 66 43 1A 00 00 C3 0F 33 33 C3 4D 33 33 C3 88 F3 33 42 68 66 66 C3 4E 4C CD C2 FB 33 33 F5 16 
15:32:19.978 -> RS485 RX: 04 03 20 00 00 12 CE 52 
15:32:20.070 -> RS485 TX: 04 03 24 43 D2 19 9A 43 D2 59 9A 43 D2 A6 66 43 73 00 00 43 72 4C CD 43 73 99 9A 3F 80 83 12 3F 97 EF 9E 3F 82 F1 AA D4 D4 
15:32:20.156 -> RS485 RX: 04 03 20 12 00 10 EF 96 
15:32:20.200 -> RS485 TX: 04 03 20 C3 42 66 66 43 1A 00 00 C3 0F 33 33 C3 4D 33 33 C3 88 F3 33 42 68 66 66 C3 4E 4C CD C2 FB 33 33 F5 16 
15:32:20.291 -> RS485 RX: 04 03 20 2A 00 1C 6E 5E 
15:32:20.379 -> RS485 TX: 04 03 38 B9 82 8C 37 3A 25 69 B1 BA 02 49 1B BA 58 01 B4 00 00 00 00 00 00 00 00 00 00 00 00 00 00 00 00 00 00 00 00 00 00 00 00 00 00 00 00 00 00 00 00 00 00 00 00 42 48 0A 3D A4 6C 
15:32:20.468 -> RS485 RX: 04 03 20 12 00 10 EF 96 
15:32:20.515 -> RS485 TX: 04 03 20 C3 42 66 66 43 1A 00 00 C3 0F 33 33 C3 4D 33 33 C3 88 F3 33 42 68 66 66 C3 4E 4C CD C2 FB 33 33 F5 16 
15:32:20.557 -> Message arrived [dtsu666/data] {"voltage_ab":420.2999878,"voltage_bc":420.7999878,"voltage_ca":421.2999878,"voltage_a":243,"voltage_b":242.3999939,"voltage_c":243.5,"current_a":0.989000022,"current_b":1.210000038,"current_c":1.029999971,"active_power_total":-201.3999939,"active_power_a":150.5,"active_power_b":-143.3999939,"active_power_c":-205.8000031,"reactive_power_total":-277.2999878,"reactive_power_a":54.5,"reactive_power_b":-204,"reactive_power_c":-127.8000031,"power_factor_total":-0.257999986,"power_factor_a":0.621999979,"power_factor_b":-0.495000005,"power_factor_c":-0.815999985,"frequency":50,"forward_active_energy_total":192.9100037,"reverse_active_energy_total":281.0400085}
15:32:20.601 -> Meter values updated from MQTT
15:32:20.689 -> RS485 RX: 04 03 10 1E 00 0C 21 5C 
15:32:20.737 -> RS485 TX: 04 03 18 00 02 F1 8E 00 00 00 00 00 00 00 00 00 00 00 00 00 00 00 00 00 04 49 D0 DD 28 
15:32:20.822 -> RS485 RX: 04 03 20 12 00 10 EF 96 
15:32:20.909 -> RS485 TX: 04 03 20 C3 49 66 66 43 16 80 00 C3 0F 66 66 C3 4D CC CD C3 8A A6 66 42 5A 00 00 C3 4C 00 00 C2 FF 99 9A F6 B8 
15:32:21.001 -> RS485 RX: 04 03 00 06 00 02 24 5F 
15:32:21.001 -> RS485 TX: 04 03 04 00 0A 00 01 4E F1 
15:32:21.088 -> RS485 RX: 04 03 20 12 00 10 EF 96 
15:32:21.176 -> RS485 TX: 04 03 20 C3 49 66 66 43 16 80 00 C3 0F 66 66 C3 4D CC CD C3 8A A6 66 42 5A 00 00 C3 4C 00 00 C2 FF 99 9A F6 B8 
15:32:21.747 -> RS485 RX: 04 03 20 12 00 10 EF 96 
15:32:21.795 -> RS485 TX: 04 03 20 C3 49 66 66 43 16 80 00 C3 0F 66 66 C3 4D CC CD C3 8A A6 66 42 5A 00 00 C3 4C 00 00 C2 FF 99 9A F6 B8 
15:32:21.921 -> RS485 RX: 04 03 20 00 00 12 CE 52 
15:32:21.964 -> RS485 TX: 04 03 24 43 D2 26 66 43 D2 66 66 43 D2 A6 66 43 73 00 00 43 72 66 66 43 73 80 00 3F 7D 2F 1B 3F 9A E1 48 3F 83 D7 0A CE 82 
15:32:22.180 -> Message arrived [dtsu666/data] {"voltage_ab":420,"voltage_bc":420.7999878,"voltage_ca":421.1000061,"voltage_a":242.6999969,"voltage_b":242.3000031,"voltage_c":243.6000061,"current_a":1.026000023,"current_b":1.203999996,"current_c":1.036999941,"active_power_total":-198.5,"active_power_a":153.8000031,"active_power_b":-146,"active_power_c":-206.3000031,"reactive_power_total":-268.5,"reactive_power_a":59.70000076,"reactive_power_b":-203.6000061,"reactive_power_c":-124.6999969,"power_factor_total":-0.241999999,"power_factor_a":0.623000026,"power_factor_b":-0.497000009,"power_factor_c":-0.823000014,"frequency":50,"forward_active_energy_total":192.9100037,"reverse_active_energy_total":281.0400085}
15:32:22.223 -> Meter values updated from MQTT
15:32:22.509 -> RS485 RX: 04 03 20 00 00 12 CE 52 
15:32:22.595 -> RS485 TX: 04 03 24 43 D2 00 00 43 D2 66 66 43 D2 8C CD 43 72 B3 33 43 72 4C CD 43 73 99 9A 3F 83 53 F8 3F 9A 1C AC 3F 84 BC 6A 5E B8 
15:32:22.683 -> RS485 RX: 04 03 20 12 00 10 EF 96 
15:32:22.726 -> RS485 TX: 04 03 20 C3 46 80 00 43 19 CC CD C3 12 00 00 C3 4E 4C CD C3 86 40 00 42 6E CC CD C3 4B 99 9A C2 F9 66 66 E2 74 
15:32:22.814 -> RS485 RX: 04 03 20 2A 00 1C 6E 5E 
15:32:22.905 -> RS485 TX: 04 03 38 B9 7D C1 61 3A 23 50 D3 BA 02 49 1B BA 57 BE 99 00 00 00 00 00 00 00 00 00 00 00 00 00 00 00 00 00 00 00 00 00 00 00 00 00 00 00 00 00 00 00 00 00 00 00 00 42 48 00 00 6C 9A 
15:32:22.997 -> RS485 RX: 04 03 20 12 00 10 EF 96 
15:32:23.037 -> RS485 TX: 04 03 20 C3 46 80 00 43 19 CC CD C3 12 00 00 C3 4E 4C CD C3 86 40 00 42 6E CC CD C3 4B 99 9A C2 F9 66 66 E2 74 
15:32:23.165 -> RS485 RX: 04 03 10 1E 00 0C 21 5C 
15:32:23.206 -> RS485 TX: 04 03 18 00 02 F1 8E 00 00 00 00 00 00 00 00 00 00 00 00 00 00 00 00 00 04 49 D0 DD 28 
15:32:23.291 -> RS485 RX: 04 03 20 12 00 10 EF 96 
15:32:23.333 -> RS485 TX: 04 03 20 C3 46 80 00 43 19 CC CD C3 12 00 00 C3 4E 4C CD C3 86 40 00 42 6E CC CD C3 4B 99 9A C2 F9 66 66 E2 74 
15:32:23.422 -> RS485 RX: 04 03 00 06 00 02 24 5F 
15:32:23.463 -> RS485 TX: 04 03 04 00 0A 00 01 4E F1 
15:32:23.679 -> RS485 RX: 04 03 20 12 00 10 EF 96 
15:32:23.713 -> RS485 TX: 04 03 20 C3 46 80 00 43 19 CC CD C3 12 00 00 C3 4E 4C CD C3 86 40 00 42 6E CC CD C3 4B 99 9A C2 F9 66 66 E2 74 
15:32:23.798 -> RS485 RX: 04 03 20 00 00 12 CE 52 
15:32:23.885 -> RS485 TX: 04 03 24 43 D2 00 00 43 D2 66 66 43 D2 8C CD 43 72 B3 33 43 72 4C CD 43 73 99 9A 3F 83 53 F8 3F 9A 1C AC 3F 84 BC 6A 5E B8 
15:32:23.885 -> Message arrived [dtsu666/data] {"voltage_ab":419.8999939,"voltage_bc":420.7999878,"voltage_ca":421.3999939,"voltage_a":242.8000031,"voltage_b":242.1000061,"voltage_c":243.8000031,"current_a":1.029999971,"current_b":1.210999966,"current_c":1.047000051,"active_power_total":-199.5,"active_power_a":153.3000031,"active_power_b":-143.3999939,"active_power_c":-209.3999939,"reactive_power_total":-269.5,"reactive_power_a":60.40000153,"reactive_power_b":-205.5,"reactive_power_c":-124.4000015,"power_factor_total":-0.25,"power_factor_a":0.61500001,"power_factor_b":-0.49000001,"power_factor_c":-0.822000027,"frequency":50,"forward_active_energy_total":192.9100037,"reverse_active_energy_total":281.0400085}
15:32:23.929 -> Meter values updated from MQTT
15:32:24.021 -> RS485 RX: 04 03 20 12 00 10 EF 96 
15:32:24.065 -> RS485 TX: 04 03 20 C3 47 80 00 43 19 4C CD C3 0F 66 66 C3 51 66 66 C3 86 C0 00 42 71 99 9A C3 4D 80 00 C2 F8 CC CD C9 23 
15:32:24.199 -> RS485 RX: 04 03 20 2A 00 1C 6E 5E 
15:32:24.242 -> RS485 TX: 04 03 38 B9 83 12 6F 3A 21 37 F4 BA 00 73 58 BA 57 7B 7D 00 00 00 00 00 00 00 00 00 00 00 00 00 00 00 00 00 00 00 00 00 00 00 00 00 00 00 00 00 00 00 00 00 00 00 00 42 48 00 00 A3 6E 
15:32:24.373 -> RS485 RX: 04 03 20 12 00 10 EF 96 
15:32:24.416 -> RS485 TX: 04 03 20 C3 47 80 00 43 19 4C CD C3 0F 66 66 C3 51 66 66 C3 86 C0 00 42 71 99 9A C3 4D 80 00 C2 F8 CC CD C9 23 
15:32:24.505 -> RS485 RX: 04 03 10 1E 00 0C 21 5C 
15:32:24.553 -> RS485 TX: 04 03 18 00 02 F1 8E 00 00 00 00 00 00 00 00 00 00 00 00 00 00 00 00 00 04 49 D0 DD 28 
15:32:24.670 -> RS485 RX: 04 03 20 12 00 10 EF 96 
15:32:24.718 -> RS485 TX: 04 03 20 C3 47 80 00 43 19 4C CD C3 0F 66 66 C3 51 66 66 C3 86 C0 00 42 71 99 9A C3 4D 80 00 C2 F8 CC CD C9 23 
15:32:24.814 -> RS485 RX: 04 03 00 06 00 02 24 5F 
15:32:24.814 -> RS485 TX: 04 03 04 00 0A 00 01 4E F1 
15:32:24.939 -> RS485 RX: 04 03 20 12 00 10 EF 96 
15:32:24.987 -> RS485 TX: 04 03 20 C3 47 80 00 43 19 4C CD C3 0F 66 66 C3 51 66 66 C3 86 C0 00 42 71 99 9A C3 4D 80 00 C2 F8 CC CD C9 23 
15:32:25.064 -> RS485 RX: 04 03 20 
15:32:25.157 -> RS485 RX: 00 00 12 CE 52 
15:32:25.463 -> Message arrived [dtsu666/data] {"voltage_ab":420,"voltage_bc":420.7000122,"voltage_ca":421.3999939,"voltage_a":242.8999939,"voltage_b":242.1000061,"voltage_c":243.6000061,"current_a":0.984000027,"current_b":1.35800004,"current_c":1.06400001,"active_power_total":-275.8999939,"active_power_a":143,"active_power_b":-207.1999969,"active_power_c":-211.6999969,"reactive_power_total":-272.6000061,"reactive_power_a":57,"reactive_power_b":-203.3999939,"reactive_power_c":-126.3000031,"power_factor_total":-0.333999991,"power_factor_a":0.600000024,"power_factor_b":-0.634000003,"power_factor_c":-0.819000006,"frequency":50.00999832,"forward_active_energy_total":192.9100037,"reverse_active_energy_total":281.0400085}
15:32:25.551 -> Meter values updated from MQTT
15:32:25.734 -> RS485 RX: 04 03 20 00 00 12 CE 52 
15:32:25.776 -> RS485 TX: 04 03 24 43 D2 00 00 43 D2 59 9A 43 D2 B3 33 43 72 E6 66 43 72 19 9A 43 73 99 9A 3F 7B E7 6D 3F AD D2 F2 3F 88 31 27 99 E3 
15:32:25.910 -> RS485 RX: 04 03 20 12 00 10 EF 96 
15:32:25.950 -> RS485 TX: 04 03 20 C3 89 F3 33 43 0F 00 00 C3 4F 33 33 C3 53 B3 33 C3 88 4C CD 42 64 00 00 C3 4B 66 66 C2 FC 99 9A 7C 8C 
15:32:26.042 -> RS485 RX: 04 03 20 2A 00 1C 6E 5E 
15:32:26.089 -> RS485 TX: 04 03 38 B9 AF 1C B8 3A 1D 49 52 BA 26 33 05 BA 56 B2 29 00 00 00 00 00 00 00 00 00 00 00 00 00 00 00 00 00 00 00 00 00 00 00 00 00 00 00 00 00 00 00 00 00 00 00 00 42 48 0A 3D DD EA 
15:32:26.224 -> RS485 RX: 04 03 20 12 00 10 EF 96 
15:32:26.272 -> RS485 TX: 04 03 20 C3 89 F3 33 43 0F 00 00 C3 4F 33 33 C3 53 B3 33 C3 88 4C CD 42 64 00 00 C3 4B 66 66 C2 FC 99 9A 7C 8C 
15:32:26.455 -> RS485 RX: 04 03 10 1E 00 0C 21 5C 
15:32:26.492 -> RS485 TX: 04 03 18 00 02 F1 8E 00 00 00 00 00 00 00 00 00 00 00 00 00 00 00 00 00 04 49 D0 DD 28 
15:32:26.623 -> RS485 RX: 04 03 20 12 00 10 EF 96 
15:32:26.667 -> RS485 TX: 04 03 20 C3 89 F3 33 43 0F 00 00 C3 4F 33 33 C3 53 B3 33 C3 88 4C CD 42 64 00 00 C3 4B 66 66 C2 FC 99 9A 7C 8C 
15:32:26.754 -> RS485 RX: 04 03 00 06 00 02 24 5F 
15:32:26.754 -> RS485 TX: 04 03 04 00 0A 00 01 4E F1 
15:32:26.886 -> RS485 RX: 04 03 20 12 
15:32:26.978 -> RS485 RX: 00 10 EF 96 
15:32:27.157 -> Message arrived [dtsu666/data] {"voltage_ab":420.3999939,"voltage_bc":420.6000061,"voltage_ca":421.3999939,"voltage_a":243.1999969,"voltage_b":242.3000031,"voltage_c":243.3999939,"current_a":0.400999993,"current_b":1.371000051,"current_c":1.054999948,"active_power_total":-389.5,"active_power_a":34.20000076,"active_power_b":-215.5,"active_power_c":-211.5,"reactive_power_total":-298.2000122,"reactive_power_a":26.89999962,"reactive_power_b":-200.1999969,"reactive_power_c":-124.9000015,"power_factor_total":-0.606000006,"power_factor_a":0.26699999,"power_factor_b":-0.657000005,"power_factor_c":-0.824999988,"frequency":50.00999832,"forward_active_energy_total":192.9100037,"reverse_active_energy_total":281.0400085}
15:32:27.241 -> Meter values updated from MQTT
15:32:27.555 -> RS485 RX: 04 03 20 12 00 10 EF 96 
15:32:27.599 -> RS485 TX: 04 03 20 C3 C2 C0 00 42 08 CC CD C3 57 80 00 C3 53 80 00 C3 95 19 9A 41 D7 33 33 C3 48 33 33 C2 F9 CC CD D9 C6 
15:32:27.691 -> RS485 RX: 04 03 20 00 00 12 CE 52 
15:32:27.739 -> RS485 TX: 04 03 24 43 D2 33 33 43 D2 4C CD 43 D2 B3 33 43 73 33 33 43 72 4C CD 43 73 66 66 3E CD 4F DF 3F AF 7C EE 3F 87 0A 3D C7 A8 
15:32:27.827 -> RS485 RX: 04 03 20 12 00 10 EF 96 
15:32:27.871 -> RS485 TX: 04 03 20 C3 C2 C0 00 42 08 CC CD C3 57 80 00 C3 53 80 00 C3 95 19 9A 41 D7 33 33 C3 48 33 33 C2 F9 CC CD D9 C6 
15:32:28.005 -> RS485 RX: 04 03 20 2A 00 1C 6E 5E 
15:32:28.049 -> RS485 TX: 04 03 38 BA 1E DB F9 39 8B FC 22 BA 2C 3A 86 BA 58 44 D0 00 00 00 00 00 00 00 00 00 00 00 00 00 00 00 00 00 00 00 00 00 00 00 00 00 00 00 00 00 00 00 00 00 00 00 00 42 48 0A 3D BB 48 
15:32:28.677 -> RS485 RX: 04 03 20 2A 00 1C 6E 5E 
15:32:28.766 -> RS485 TX: 04 03 38 BA 1E DB F9 39 8B FC 22 BA 2C 3A 86 BA 58 44 D0 00 00 00 00 00 00 00 00 00 00 00 00 00 00 00 00 00 00 00 00 00 00 00 00 00 00 00 00 00 00 00 00 00 00 00 00 42 48 0A 3D BB 48 
15:32:28.766 -> Message arrived [dtsu666/data] {"voltage_ab":420.1000061,"voltage_bc":420.3999939,"voltage_ca":421.3999939,"voltage_a":243.1000061,"voltage_b":242,"voltage_c":243.5,"current_a":0.344000012,"current_b":1.383000016,"current_c":1.080000043,"active_power_total":-414.5,"active_power_a":17.39999962,"active_power_b":-215.8999939,"active_power_c":-216,"reactive_power_total":-310.2999878,"reactive_power_a":24.10000038,"reactive_power_b":-207.1000061,"reactive_power_c":-127.4000015,"power_factor_total":-0.624000013,"power_factor_a":0.196999997,"power_factor_b":-0.654999971,"power_factor_c":-0.827000022,"frequency":50.00999832,"forward_active_energy_total":192.9100037,"reverse_active_energy_total":281.0400085}
15:32:28.810 -> Meter values updated from MQTT
15:32:28.897 -> RS485 RX: 04 03 20 12 00 10 EF 96 
15:32:28.975 -> RS485 TX: 04 03 20 C3 CF 40 00 41 8B 33 33 C3 57 E6 66 C3 58 00 00 C3 9B 26 66 41 C0 CC CD C3 4F 19 9A C2 FE CC CD EA 98 
15:32:29.164 -> RS485 RX: 04 03 10 1E 00 0C 21 5C 
15:32:29.210 -> RS485 TX: 04 03 18 00 02 F1 8E 00 00 00 00 00 00 00 00 00 00 00 00 00 00 00 00 00 04 49 D0 DD 28 
15:32:29.299 -> RS485 RX: 04 03 20 12 00 10 EF 96 
15:32:29.339 -> RS485 TX: 04 03 20 C3 CF 40 00 41 8B 33 33 C3 57 E6 66 C3 58 00 00 C3 9B 26 66 41 C0 CC CD C3 4F 19 9A C2 FE CC CD EA 98 
15:32:29.468 -> RS485 RX: 04 03 00 06 00 02 24 5F 
15:32:29.468 -> RS485 TX: 04 03 04 00 0A 00 01 4E F1 
15:32:29.558 -> RS485 RX: 04 03 20 12 00 
15:32:29.676 -> RS485 RX: 10 EF 96 
15:32:30.188 -> RS485 RX: 04 03 20 12 00 
15:32:30.288 -> RS485 RX: 10 EF 96 
15:32:30.503 -> Message arrived [dtsu666/data] {"voltage_ab":420,"voltage_bc":420.6000061,"voltage_ca":421.6000061,"voltage_a":243.1000061,"voltage_b":241.8999939,"voltage_c":243.8000031,"current_a":0.352999985,"current_b":1.39199996,"current_c":1.078999996,"active_power_total":-429.7999878,"active_power_a":16.29999924,"active_power_b":-225.3000031,"active_power_c":-220.8000031,"reactive_power_total":-299.2000122,"reactive_power_a":29.10000038,"reactive_power_b":-204.3999939,"reactive_power_c":-123.9000015,"power_factor_total":-0.632000029,"power_factor_a":0.202000007,"power_factor_b":-0.670000017,"power_factor_c":-0.841000021,"frequency":50,"forward_active_energy_total":192.9100037,"reverse_active_energy_total":281.0400085}
15:32:30.536 -> Meter values updated from MQTT
15:32:30.845 -> RS485 RX: 04 03 20 12 00 10 EF 96 
15:32:30.889 -> RS485 TX: 04 03 20 C3 D6 E6 66 41 82 66 66 C3 61 4C CD C3 5C CC CD C3 95 99 9A 41 E8 CC CD C3 4C 66 66 C2 F7 CC CD 94 7D 
15:32:30.977 -> RS485 RX: 04 03 20 00 00 12 CE 52 
15:32:31.017 -> RS485 TX: 04 03 24 43 D2 00 00 43 D2 4C CD 43 D2 CC CD 43 73 19 9A 43 71 E6 66 43 73 CC CD 3E B4 BC 6A 3F B2 2D 0E 3F 8A 1C AC 92 62 
15:32:31.152 -> RS485 RX: 04 03 20 12 00 10 EF 96 
15:32:31.201 -> RS485 TX: 04 03 20 C3 D6 E6 66 41 82 66 66 C3 61 4C CD C3 5C CC CD C3 95 99 9A 41 E8 CC CD C3 4C 66 66 C2 F7 CC CD 94 7D 
15:32:31.289 -> RS485 RX: 04 03 20 2A 00 1C 6E 5E 
15:32:31.377 -> RS485 TX: 04 03 38 BA 25 AC CE 39 53 CF F7 BA 2F A2 F1 BA 5C 76 8E 00 00 00 00 00 00 00 00 00 00 00 00 00 00 00 00 00 00 00 00 00 00 00 00 00 00 00 00 00 00 00 00 00 00 00 00 42 48 00 00 54 D6 
15:32:31.950 -> RS485 RX: 04 03 20 2A 00 1C 6E 5E 
15:32:32.038 -> RS485 TX: 04 03 38 BA 25 AC CE 39 53 CF F7 BA 2F A2 F1 BA 5C 76 8E 00 00 00 00 00 00 00 00 00 00 00 00 00 00 00 00 00 00 00 00 00 00 00 00 00 00 00 00 00 00 00 00 00 00 00 00 42 48 00 00 54 D6 
15:32:32.170 -> RS485 RX: 04 03 20 12 00 10 EF 96 
15:32:32.218 -> RS485 TX: 04 03 20 C3 D6 E6 66 41 82 66 66 C3 61 4C CD C3 5C CC CD C3 95 99 9A 41 E8 CC CD C3 4C 66 66 C2 F7 CC CD 94 7D 
15:32:32.218 -> Message arrived [dtsu666/data] {"voltage_ab":419.7999878,"voltage_bc":420.7000122,"voltage_ca":421.5,"voltage_a":242.8999939,"voltage_b":241.8999939,"voltage_c":244,"current_a":0.887000024,"current_b":1.574000001,"current_c":1.269000053,"active_power_total":-469.2000122,"active_power_a":77.90000153,"active_power_b":-280.7000122,"active_power_c":-266.3999939,"reactive_power_total":-277.6000061,"reactive_power_a":52.70000076,"reactive_power_b":-202.8999939,"reactive_power_c":-127.4000015,"power_factor_total":-0.528999984,"power_factor_a":0.388000011,"power_factor_b":-0.74000001,"power_factor_c":-0.870000005,"frequency":50,"forward_active_energy_total":192.9100037,"reverse_active_energy_total":281.0400085}
15:32:32.266 -> Meter values updated from MQTT
15:32:32.784 -> RS485 RX: 04 03 20 12 00 10 EF 96 
15:32:32.830 -> RS485 TX: 04 03 20 C3 EA 99 9A 42 9B CC CD C3 8C 59 9A C3 85 33 33 C3 8A CC CD 42 52 CC CD C3 4A E6 66 C2 FE CC CD F6 ED 
15:32:32.922 -> RS485 RX: 04 03 10 1E 00 0C 21 5C 
15:32:32.966 -> RS485 TX: 04 03 18 00 02 F1 8E 00 00 00 00 00 00 00 00 00 00 00 00 00 00 00 00 00 04 49 D0 DD 28 
15:32:33.050 -> RS485 RX: 04 03 20 12 00 10 EF 96 
15:32:33.092 -> RS485 TX: 04 03 20 C3 EA 99 9A 42 9B CC CD C3 8C 59 9A C3 85 33 33 C3 8A CC CD 42 52 CC CD C3 4A E6 66 C2 FE CC CD F6 ED 
15:32:33.184 -> RS485 RX: 04 03 00 06 00 02 24 5F 
15:32:33.228 -> RS485 TX: 04 03 04 00 0A 00 01 4E F1 
15:32:33.316 -> RS485 RX: 04 03 20 12 00 10 EF 96 
15:32:33.360 -> RS485 TX: 04 03 20 C3 EA 99 9A 42 9B CC CD C3 8C 59 9A C3 85 33 33 C3 8A CC CD 42 52 CC CD C3 4A E6 66 C2 FE CC CD F6 ED 
15:32:33.456 -> RS485 RX: 04 03 20 00 00 
15:32:33.557 -> RS485 RX: 12 CE 52 
15:32:33.689 -> Message arrived [dtsu666/data] {"voltage_ab":419.5,"voltage_bc":420.7999878,"voltage_ca":421.3999939,"voltage_a":242.6000061,"voltage_b":241.8999939,"voltage_c":244,"current_a":0.930999994,"current_b":1.888000011,"current_c":1.649999976,"active_power_total":-709.4000244,"active_power_a":21.89999962,"active_power_b":-523.2000122,"active_power_c":-494.5,"reactive_power_total":-228.1999969,"reactive_power_a":73.40000153,"reactive_power_b":-189,"reactive_power_c":-112.5999985,"power_factor_total":-0.843999982,"power_factor_a":-0.481999993,"power_factor_b":-0.901000023,"power_factor_c":-0.957000017,"frequency":50,"forward_active_energy_total":192.9100037,"reverse_active_energy_total":281.0400085}
15:32:33.733 -> Meter values updated from MQTT
15:32:34.152 -> RS485 RX: 04 03 20 00 00 12 CE 52 
15:32:34.192 -> RS485 TX: 04 03 24 43 D1 C0 00 43 D2 66 66 43 D2 B3 33 43 72 99 9A 43 71 E6 66 43 74 00 00 3F 6E 56 04 3F F1 A9 FC 3F D3 33 33 91 D1 
15:32:34.276 -> RS485 RX: 04 03 20 12 00 10 EF 96 
15:32:34.320 -> RS485 TX: 04 03 20 C4 31 59 9A 41 AF 33 33 C4 02 CC CD C3 F7 40 00 C3 64 33 33 42 92 CC CD C3 3D 00 00 C2 E1 33 33 71 56 
15:32:34.446 -> RS485 RX: 04 03 20 2A 00 1C 6E 5E 
15:32:34.521 -> RS485 TX: 04 03 38 BA 5D 3F E1 B9 FC B4 F2 BA 6C 31 17 BA 7A DF 2F 00 00 00 00 00 00 00 00 00 00 00 00 00 00 00 00 00 00 00 00 00 00 00 00 00 00 00 00 00 00 00 00 00 00 00 00 42 48 00 00 72 CA 
15:32:34.608 -> RS485 RX: 04 03 20 12 00 10 EF 96 
15:32:34.650 -> RS485 TX: 04 03 20 C4 31 59 9A 41 AF 33 33 C4 02 CC CD C3 F7 40 00 C3 64 33 33 42 92 CC CD C3 3D 00 00 C2 E1 33 33 71 56 
15:32:34.865 -> RS485 RX: 04 03 10 1E 00 0C 21 5C 
15:32:34.909 -> RS485 TX: 04 03 18 00 02 F1 8E 00 00 00 00 00 00 00 00 00 00 00 00 00 00 00 00 00 04 49 D0 DD 28 
15:32:34.997 -> RS485 RX: 04 03 20 12 00 10 EF 96 
15:32:35.037 -> RS485 TX: 04 03 20 C4 31 59 9A 41 AF 33 33 C4 02 CC CD C3 F7 40 00 C3 64 33 33 42 92 CC CD C3 3D 00 00 C2 E1 33 33 71 56 
15:32:35.169 -> RS485 RX: 04 03 00 06 00 02 24 5F 
15:32:35.169 -> RS485 TX: 04 03 04 00 0A 00 01 4E F1 
15:32:35.257 -> RS485 RX: 04 03 20 12 00 10 
15:32:35.393 -> RS485 RX: EF 96 
15:32:35.393 -> Message arrived [dtsu666/data] {"voltage_ab":420.1000061,"voltage_bc":421.2000122,"voltage_ca":421.6000061,"voltage_a":242.8000031,"voltage_b":242.3000031,"voltage_c":244.1000061,"current_a":1.335999966,"current_b":3.516000032,"current_c":2.545000076,"active_power_total":-1650.400024,"active_power_a":-246.3999939,"active_power_b":-805.2000122,"active_power_c":-598.7000122,"reactive_power_total":-186.8999939,"reactive_power_a":68,"reactive_power_b":-144.3000031,"reactive_power_c":-110.5999985,"power_factor_total":-0.947000027,"power_factor_a":-0.805999994,"power_factor_b":-0.976999998,"power_factor_c":-0.973999977,"frequency":49.99000168,"forward_active_energy_total":192.9100037,"reverse_active_energy_total":281.0400085}
15:32:35.438 -> Meter values updated from MQTT
15:32:35.955 -> RS485 RX: 04 03 20 12 00 10 EF 96 
15:32:36.004 -> RS485 TX: 04 03 20 C4 CE 4C CD C3 76 66 66 C4 49 4C CD C4 15 AC CD C3 3A E6 66 42 88 00 00 C3 10 4C CD C2 DD 33 33 A7 56 
15:32:36.092 -> RS485 RX: 04 03 20 00 00 12 CE 52 
15:32:36.136 -> RS485 TX: 04 03 24 43 D2 0C CD 43 D2 99 9A 43 D2 CC CD 43 72 CC CD 43 72 4C CD 43 74 19 9A 3F AB 02 0C 40 61 06 25 40 22 E1 48 78 98 
15:32:36.228 -> RS485 RX: 04 03 20 12 00 10 EF 96 
15:32:36.272 -> RS485 TX: 04 03 20 C4 CE 4C CD C3 76 66 66 C4 49 4C CD C4 15 AC CD C3 3A E6 66 42 88 00 00 C3 10 4C CD C2 DD 33 33 A7 56 
15:32:36.405 -> RS485 RX: 04 03 20 2A 00 1C 6E 5E 
15:32:36.443 -> RS485 TX: 04 03 38 BA 78 40 19 BA 53 49 BE BA 80 0E AE BA 7F 54 08 00 00 00 00 00 00 00 00 00 00 00 00 00 00 00 00 00 00 00 00 00 00 00 00 00 00 00 00 00 00 00 00 00 00 00 00 42 47 F5 C3 CA 68 
15:32:36.957 -> RS485 RX: 04 
15:32:37.048 -> RS485 RX: 03 20 2A 00 1C 6E 5E 
15:32:37.088 -> Message arrived [dtsu666/data] {"voltage_ab":420.6000061,"voltage_bc":421.5,"voltage_ca":421.3999939,"voltage_a":242.8000031,"voltage_b":242.8999939,"voltage_c":243.8999939,"current_a":1.394999981,"current_b":5.318999767,"current_c":2.654999971,"active_power_total":-2183.600098,"active_power_a":-281.5,"active_power_b":-1267.800049,"active_power_c":-634.2999878,"reactive_power_total":-191.1999969,"reactive_power_a":62.90000153,"reactive_power_b":-140.8999939,"reactive_power_c":-113.1999969,"power_factor_total":-0.959999979,"power_factor_a":-0.827000022,"power_factor_b":-0.987999976,"power_factor_c":-0.976000011,"frequency":49.99000168,"forward_active_energy_total":192.9100037,"reverse_active_energy_total":281.0400085}
15:32:37.132 -> Meter values updated from MQTT
15:32:37.623 -> RS485 RX: 04 03 20 2A 00 1C 6E 5E 
15:32:37.715 -> RS485 TX: 04 03 38 BA 7B A8 82 BA 58 CB 08 BA 81 7F C7 BA 7F DA 41 00 00 00 00 00 00 00 00 00 00 00 00 00 00 00 00 00 00 00 00 00 00 00 00 00 00 00 00 00 00 00 00 00 00 00 00 42 47 F5 C3 B7 DD 
15:32:37.804 -> RS485 RX: 04 03 20 12 00 10 EF 96 
15:32:37.848 -> RS485 TX: 04 03 20 C5 08 79 9A C3 8C C0 00 C4 9E 79 9A C4 1E 93 33 C3 3F 33 33 42 7B 99 9A C3 0C E6 66 C2 E2 66 66 08 4D 
15:32:37.973 -> RS485 RX: 04 03 10 1E 00 0C 21 5C 
15:32:38.017 -> RS485 TX: 04 03 18 00 02 F1 8E 00 00 00 00 00 00 00 00 00 00 00 00 00 00 00 00 00 04 49 D0 DD 28 
15:32:38.113 -> RS485 RX: 04 03 20 12 00 10 EF 96 
15:32:38.160 -> RS485 TX: 04 03 20 C5 08 79 9A C3 8C C0 00 C4 9E 79 9A C4 1E 93 33 C3 3F 33 33 42 7B 99 9A C3 0C E6 66 C2 E2 66 66 08 4D 
15:32:38.255 -> RS485 RX: 04 03 00 06 00 02 24 5F 
15:32:38.255 -> RS485 TX: 04 03 04 00 0A 00 01 4E F1 
15:32:38.658 -> Message arrived [dtsu666/data] {"voltage_ab":420.6000061,"voltage_bc":421.3999939,"voltage_ca":421.2999878,"voltage_a":242.8000031,"voltage_b":242.8999939,"voltage_c":243.6000061,"current_a":1.136999965,"current_b":4.519000053,"current_c":2.322000027,"active_power_total":-1845.699951,"active_power_a":-196.5,"active_power_b":-1097.800049,"active_power_c":-551.2999878,"reactive_power_total":-207.6000061,"reactive_power_a":61,"reactive_power_b":-151.8000031,"reactive_power_c":-116.8000031,"power_factor_total":-0.936999977,"power_factor_a":-0.703000009,"power_factor_b":-0.981999993,"power_factor_c":-0.964999974,"frequency":49.97999954,"forward_active_energy_total":192.9100037,"reverse_active_energy_total":281.0400085}
15:32:38.741 -> Meter values updated from MQTT
15:32:38.829 -> RS485 RX: 04 03 00 06 00 02 24 5F 
15:32:38.878 -> RS485 TX: 04 03 04 00 0A 00 01 4E F1 
15:32:38.958 -> RS485 RX: 04 03 20 12 00 10 EF 96 
15:32:38.998 -> RS485 TX: 04 03 20 C4 E6 B6 66 C3 44 80 00 C4 89 39 9A C4 09 D3 33 C3 4F 99 9A 42 74 00 00 C3 17 CC CD C2 E9 99 9A 9A D7 
15:32:39.086 -> RS485 RX: 04 03 20 00 00 12 CE 52 
15:32:39.169 -> RS485 TX: 04 03 24 43 D2 4C CD 43 D2 B3 33 43 D2 A6 66 43 72 CC CD 43 72 E6 66 43 73 99 9A 3F 91 89 37 40 90 9B A6 40 14 9B A6 3D DF 
15:32:39.261 -> RS485 RX: 04 03 20 12 00 10 EF 96 
15:32:39.305 -> RS485 TX: 04 03 20 C4 E6 B6 66 C3 44 80 00 C4 89 39 9A C4 09 D3 33 C3 4F 99 9A 42 74 00 00 C3 17 CC CD C2 E9 99 9A 9A D7 
15:32:39.397 -> RS485 RX: 04 03 20 2A 00 1C 6E 5E 
15:32:39.482 -> RS485 TX: 04 03 38 BA 75 A1 01 BA 38 49 88 BA 80 B6 74 BA 7C F8 0D 00 00 00 00 00 00 00 00 00 00 00 00 00 00 00 00 00 00 00 00 00 00 00 00 00 00 00 00 00 00 00 00 00 00 00 00 42 47 EB 85 B7 AE 
15:32:39.574 -> RS485 RX: 04 03 20 12 00 10 EF 96 
15:32:39.620 -> RS485 TX: 04 03 20 C4 E6 B6 66 C3 44 80 00 C4 89 39 9A C4 09 D3 33 C3 4F 99 9A 42 74 00 00 C3 17 CC CD C2 E9 99 9A 9A D7 
15:32:39.716 -> RS485 RX: 04 03 10 1E 00 0C 21 5C 
15:32:39.758 -> RS485 TX: 04 03 18 00 02 F1 8E 00 00 00 00 00 00 00 00 00 00 00 00 00 00 00 00 00 04 49 D0 DD 28 
15:32:39.886 -> RS485 RX: 04 03 
15:32:39.965 -> RS485 RX: 20 12 00 10 EF 96 
15:32:40.280 -> Message arrived [dtsu666/data] {"voltage_ab":420.5,"voltage_bc":420.8999939,"voltage_ca":421.1000061,"voltage_a":242.8999939,"voltage_b":242.6999969,"voltage_c":243.3999939,"current_a":0.93900001,"current_b":3.332999945,"current_c":2.012000084,"active_power_total":-1385.099976,"active_power_a":-116.6999969,"active_power_b":-674.9000244,"active_power_c":-433.6000061,"reactive_power_total":-203.6000061,"reactive_power_a":64.59999847,"reactive_power_b":-154.1999969,"reactive_power_c":-114,"power_factor_total":-0.860000014,"power_factor_a":-0.381999999,"power_factor_b":-0.949999988,"power_factor_c":-0.94599998,"frequency":49.99000168,"forward_active_energy_total":192.9100037,"reverse_active_energy_total":281.0400085}
15:32:40.320 -> Meter values updated from MQTT
15:32:40.524 -> RS485 RX: 04 03 20 12 00 10 EF 96 
15:32:40.570 -> RS485 TX: 04 03 20 C4 AD 23 33 C2 E9 66 66 C4 28 B9 9A C3 D8 CC CD C3 4B 99 9A 42 81 33 33 C3 1A 33 33 C2 E4 00 00 42 99 
15:32:40.697 -> RS485 RX: 04 03 00 06 00 02 24 5F 
15:32:40.697 -> RS485 TX: 04 03 04 00 0A 00 01 4E F1 
15:32:40.785 -> RS485 RX: 04 03 20 12 00 10 EF 96 
15:32:40.875 -> RS485 TX: 04 03 20 C4 AD 23 33 C2 E9 66 66 C4 28 B9 9A C3 D8 CC CD C3 4B 99 9A 42 81 33 33 C3 1A 33 33 C2 E4 00 00 42 99 
15:32:40.963 -> RS485 RX: 04 03 20 00 00 12 CE 52 
15:32:41.008 -> RS485 TX: 04 03 24 43 D2 40 00 43 D2 73 33 43 D2 8C CD 43 72 E6 66 43 72 B3 33 43 73 66 66 3F 70 62 4E 40 55 4F DF 40 00 C4 9C 10 93 
15:32:41.098 -> RS485 RX: 04 03 20 12 00 10 EF 96 
15:32:41.142 -> RS485 TX: 04 03 20 C4 AD 23 33 C2 E9 66 66 C4 28 B9 9A C3 D8 CC CD C3 4B 99 9A 42 81 33 33 C3 1A 33 33 C2 E4 00 00 42 99 
15:32:41.282 -> RS485 RX: 04 03 20 2A 00 1C 6E 5E 
15:32:41.330 -> RS485 TX: 04 03 38 BA 61 71 A0 B9 C8 47 2C BA 79 09 6C BA 77 FC FC 00 00 00 00 00 00 00 00 00 00 00 00 00 00 00 00 00 00 00 00 00 00 00 00 00 00 00 00 00 00 00 00 00 00 00 00 42 47 F5 C3 1B 4E 
15:32:41.419 -> RS485 RX: 04 03 20 12 00 10 EF 96 
15:32:41.506 -> RS485 TX: 04 03 20 C4 AD 23 33 C2 E9 66 66 C4 28 B9 9A C3 D8 CC CD C3 4B 99 9A 42 81 33 33 C3 1A 33 33 C2 E4 00 00 42 99 
15:32:41.590 -> RS485 RX: 04 03 10 1E 00 0C 21 5C 
15:32:41.634 -> RS485 TX: 04 03 18 00 02 F1 8E 00 00 00 00 00 00 00 00 00 00 00 00 00 00 00 00 00 04 49 D0 DD 28 
15:32:41.722 -> RS485 RX: 04 03 20 12 00 10 EF 96 
15:32:41.765 -> RS485 TX: 04 03 20 C4 AD 23 33 C2 E9 66 66 C4 28 B9 9A C3 D8 CC CD C3 4B 99 9A 42 81 33 33 C3 1A 33 33 C2 E4 00 00 42 99 
15:32:41.856 -> RS485 RX: 04 03 00 06 
15:32:41.988 -> RS485 RX: 00 02 24 5F 
15:32:41.988 -> Message arrived [dtsu666/data] {"voltage_ab":420.3999939,"voltage_bc":421,"voltage_ca":421.6000061,"voltage_a":243.1000061,"voltage_b":242.3999939,"voltage_c":243.8000031,"current_a":0.80400002,"current_b":2.303999901,"current_c":1.597000003,"active_power_total":-880.7000122,"active_power_a":-7.800000191,"active_power_b":-507.8999939,"active_power_c":-365,"reactive_power_total":-247.3000031,"reactive_power_a":63.5,"reactive_power_b":-193,"reactive_power_c":-117.8000031,"power_factor_total":-0.75999999,"power_factor_a":0.100000001,"power_factor_b":-0.873000026,"power_factor_c":-0.916000009,"frequency":49.99000168,"forward_active_energy_total":192.9100037,"reverse_active_energy_total":281.0400085}
15:32:42.028 -> Meter values updated from MQTT
15:32:42.556 -> RS485 RX: 04 03 00 06 00 02 24 5F 
15:32:42.556 -> RS485 TX: 04 03 04 00 0A 00 01 4E F1 
15:32:42.678 -> RS485 RX: 04 03 20 12 00 10 EF 96 
15:32:42.722 -> RS485 TX: 04 03 20 C4 5C 2C CD C0 F9 99 9A C3 FD F3 33 C3 B6 80 00 C3 77 4C CD 42 7E 00 00 C3 41 00 00 C2 EB 99 9A FF B0 
15:32:42.810 -> RS485 RX: 04 03 20 00 00 12 CE 52 
15:32:42.855 -> RS485 TX: 04 03 24 43 D2 33 33 43 D2 80 00 43 D2 CC CD 43 73 19 9A 43 72 66 66 43 73 CC CD 3F 4D D2 F2 40 13 74 BC 3F CC 6A 7F 64 5E 
15:32:42.943 -> RS485 RX: 04 03 20 12 00 10 EF 96 
15:32:42.990 -> RS485 TX: 04 03 20 C4 5C 2C CD C0 F9 99 9A C3 FD F3 33 C3 B6 80 00 C3 77 4C CD 42 7E 00 00 C3 41 00 00 C2 EB 99 9A FF B0 
15:32:43.129 -> RS485 RX: 04 03 20 2A 00 1C 6E 5E 
15:32:43.174 -> RS485 TX: 04 03 38 BA 47 3A BC 38 D1 B7 18 BA 64 DA 0A BA 70 1F B8 00 00 00 00 00 00 00 00 00 00 00 00 00 00 00 00 00 00 00 00 00 00 00 00 00 00 00 00 00 00 00 00 00 00 00 00 42 47 F5 C3 DF 9A 
15:32:43.308 -> RS485 RX: 04 03 20 12 00 10 EF 96 
15:32:43.353 -> RS485 TX: 04 03 20 C4 5C 2C CD C0 F9 99 9A C3 FD F3 33 C3 B6 80 00 C3 77 4C CD 42 7E 00 00 C3 41 00 00 C2 EB 99 9A FF B0 
15:32:43.438 -> RS485 RX: 04 03 10 1E 00 0C 21 5C 
15:32:43.479 -> RS485 TX: 04 03 18 00 02 F1 8E 00 00 00 00 00 00 00 00 00 00 00 00 00 00 00 00 00 04 49 D0 DD 28 
15:32:43.593 -> RS485 RX: 04 03 20 12 00 10 
15:32:43.593 -> Message arrived [dtsu666/data] {"voltage_ab":419.8999939,"voltage_bc":420.7999878,"voltage_ca":422.2000122,"voltage_a":243.3000031,"voltage_b":241.6000061,"voltage_c":244.3000031,"current_a":0.84799999,"current_b":1.863000035,"current_c":1.312999964,"active_power_total":-594.2999878,"active_power_a":72.90000153,"active_power_b":-378.7000122,"active_power_c":-288.5,"reactive_power_total":-262.7000122,"reactive_power_a":61.40000153,"reactive_power_b":-200.3999939,"reactive_power_c":-123.8000031,"power_factor_total":-0.601999998,"power_factor_a":0.344999999,"power_factor_b":-0.833999991,"power_factor_c":-0.893000007,"frequency":49.99000168,"forward_active_energy_total":192.9100037,"reverse_active_energy_total":281.0400085}
15:32:43.637 -> Meter values updated from MQTT
15:32:43.725 -> RS485 RX: EF 96 
15:32:44.227 -> RS485 RX: 04 03 20 12 00 10 EF 96 
15:32:44.271 -> RS485 TX: 04 03 20 C4 14 93 33 42 91 CC CD C3 BD 59 9A C3 90 40 00 C3 83 59 9A 42 75 99 9A C3 48 66 66 C2 F7 99 9A 38 A4 
15:32:44.404 -> RS485 RX: 04 03 00 06 00 02 24 5F 
15:32:44.404 -> RS485 TX: 04 03 04 00 0A 00 01 4E F1 
15:32:44.491 -> RS485 RX: 04 03 20 12 00 10 EF 96 
15:32:44.583 -> RS485 TX: 04 03 20 C4 14 93 33 42 91 CC CD C3 BD 59 9A C3 90 40 00 C3 83 59 9A 42 75 99 9A C3 48 66 66 C2 F7 99 9A 38 A4 
15:32:44.676 -> RS485 RX: 04 03 20 00 00 12 CE 52 
15:32:44.725 -> RS485 TX: 04 03 24 43 D1 F3 33 43 D2 66 66 43 D3 19 9A 43 73 4C CD 43 71 99 9A 43 74 4C CD 3F 59 16 87 3F EE 76 C9 3F A8 10 62 C0 2A 
15:32:44.804 -> RS485 RX: 04 03 20 12 00 10 EF 96 
15:32:44.848 -> RS485 TX: 04 03 20 C4 14 93 33 42 91 CC CD C3 BD 59 9A C3 90 40 00 C3 83 59 9A 42 75 99 9A C3 48 66 66 C2 F7 99 9A 38 A4 
15:32:44.981 -> RS485 RX: 04 03 20 2A 00 1C 6E 5E 
15:32:45.030 -> RS485 TX: 04 03 38 BA 1D CF 89 39 B4 E1 1E BA 5A A0 CB BA 6A 18 37 00 00 00 00 00 00 00 00 00 00 00 00 00 00 00 00 00 00 00 00 00 00 00 00 00 00 00 00 00 00 00 00 00 00 00 00 42 47 F5 C3 F3 EE 
15:32:45.163 -> RS485 RX: 04 03 20 12 00 10 EF 96 
15:32:45.207 -> RS485 TX: 04 03 20 C4 14 93 33 42 91 CC CD C3 BD 59 9A C3 90 40 00 C3 83 59 9A 42 75 99 9A C3 48 66 66 C2 F7 99 9A 38 A4 
15:32:45.207 -> Message arrived [dtsu666/data] {"voltage_ab":419.5,"voltage_bc":420.7999878,"voltage_ca":422.2999878,"voltage_a":243.1000061,"voltage_b":241.3000031,"voltage_c":244.6000061,"current_a":0.822000027,"current_b":1.76699996,"current_c":1.417000055,"active_power_total":-610.5999756,"active_power_a":38.09999847,"active_power_b":-337.8999939,"active_power_c":-310.7999878,"reactive_power_total":-265.7999878,"reactive_power_a":61.09999847,"reactive_power_b":-205.8000031,"reactive_power_c":-121.0999985,"power_factor_total":-0.628000021,"power_factor_a":0.192000002,"power_factor_b":-0.790000021,"power_factor_c":-0.899999976,"frequency":50,"forward_active_energy_total":192.9100037,"reverse_active_energy_total":281.0400085}
15:32:45.254 -> Meter values updated from MQTT
15:32:45.343 -> RS485 RX: 04 03 10 1E 00 0C 21 5C 
15:32:45.388 -> RS485 TX: 04 03 18 00 02 F1 8E 00 00 00 00 00 00 00 00 00 00 00 00 00 00 00 00 00 04 49 D0 DD 28 
15:32:45.517 -> RS485 RX: 04 03 20 12 00 10 EF 96 
15:32:45.555 -> RS485 TX: 04 03 20 C4 18 A6 66 42 18 66 66 C3 A8 F3 33 C3 9B 66 66 C3 84 E6 66 42 74 66 66 C3 4D CC CD C2 F2 33 33 15 72 
15:32:45.637 -> RS485 RX: 04 03 00 06 00 02 24 5F 
15:32:45.685 -> RS485 TX: 04 03 04 00 0A 00 01 4E F1 
15:32:45.865 -> RS485 RX: 04 03 20 12 00 10 EF 96 
15:32:45.910 -> RS485 TX: 04 03 20 C4 18 A6 66 42 18 66 66 C3 A8 F3 33 C3 9B 66 66 C3 84 E6 66 42 74 66 66 C3 4D CC CD C2 F2 33 33 15 72 
15:32:46.001 -> RS485 RX: 04 03 20 00 00 12 CE 52 
15:32:46.093 -> RS485 TX: 04 03 24 43 D1 C0 00 43 D2 66 66 43 D3 26 66 43 73 19 9A 43 71 4C CD 43 74 99 9A 3F 52 6E 98 3F E2 2D 0E 3F B5 60 42 E5 8A 
15:32:46.271 -> RS485 RX: 04 03 20 12 00 10 EF 96 
15:32:46.318 -> RS485 TX: 04 03 20 C4 18 A6 66 42 18 66 66 C3 A8 F3 33 C3 9B 66 66 C3 84 E6 66 42 74 66 66 C3 4D CC CD C2 F2 33 33 15 72 
15:32:46.413 -> RS485 RX: 04 03 20 2A 00 1C 6E 5E 
15:32:46.497 -> RS485 TX: 04 03 38 BA 24 A0 5E 39 49 53 9C BA 4F 18 01 BA 6B ED FA 00 00 00 00 00 00 00 00 00 00 00 00 00 00 00 00 00 00 00 00 00 00 00 00 00 00 00 00 00 00 00 00 00 00 00 00 42 48 00 00 99 C5 
15:32:46.622 -> RS485 RX: 04 03 20 12 00 10 EF 96 
15:32:46.666 -> RS485 TX: 04 03 20 C4 18 A6 66 42 18 66 66 C3 A8 F3 33 C3 9B 66 66 C3 84 E6 66 42 74 66 66 C3 4D CC CD C2 F2 33 33 15 72 
15:32:46.741 -> RS485 RX: 04 03 10 1E 00 0C 21 5C 
15:32:46.790 -> RS485 TX: 04 03 18 00 02 F1 8E 00 00 00 00 00 00 00 00 00 00 00 00 00 00 00 00 00 04 49 D0 DD 28 
15:32:46.881 -> RS485 RX: 04 03 20 12 00 10 EF 96 
15:32:46.925 -> RS485 TX: 04 03 20 C4 18 A6 66 42 18 66 66 C3 A8 F3 33 C3 9B 66 66 C3 84 E6 66 42 74 66 66 C3 4D CC CD C2 F2 33 33 15 72 
15:32:46.969 -> Message arrived [dtsu666/data] {"voltage_ab":419.3999939,"voltage_bc":420.7000122,"voltage_ca":422,"voltage_a":242.8999939,"voltage_b":241.3999939,"voltage_c":244.3999939,"current_a":0.862999976,"current_b":1.860000014,"current_c":1.54400003,"active_power_total":-686.7999878,"active_power_a":17.20000076,"active_power_b":-358.7999878,"active_power_c":-345.2000122,"reactive_power_total":-272.5,"reactive_power_a":62,"reactive_power_b":-212.1000061,"reactive_power_c":-122.4000015,"power_factor_total":-0.708999991,"power_factor_a":-0.026000001,"power_factor_b":-0.819999993,"power_factor_c":-0.92900002,"frequency":50,"forward_active_energy_total":192.9100037,"reverse_active_energy_total":281.0499878}
15:32:47.009 -> Meter values updated from MQTT
15:32:47.098 -> RS485 RX: 04 03 00 06 00 02 24 5F 
15:32:47.143 -> RS485 TX: 04 03 04 00 0A 00 01 4E F1 
15:32:47.234 -> RS485 RX: 04 03 20 12 00 10 EF 96 
15:32:47.278 -> RS485 TX: 04 03 20 C4 2B B3 33 41 89 99 9A C3 B3 66 66 C3 AC 99 9A C3 88 40 00 42 78 00 00 C3 54 19 9A C2 F4 CC CD 2B 33 
15:32:47.368 -> RS485 RX: 04 
15:32:47.465 -> RS485 RX: 03 20 00 00 12 CE 52 
15:32:47.971 -> RS485 RX: 04 
15:32:48.098 -> RS485 RX: 03 20 00 00 12 CE 52 
15:32:48.553 -> RS485 RX: 04 
15:32:48.593 -> Message arrived [dtsu666/data] {"voltage_ab":419.6000061,"voltage_bc":420.7000122,"voltage_ca":421.7000122,"voltage_a":242.8999939,"voltage_b":241.6999969,"voltage_c":244.1000061,"current_a":0.850000024,"current_b":2.085999966,"current_c":1.777999997,"active_power_total":-874.0999756,"active_power_a":-45.70000076,"active_power_b":-422.6000061,"active_power_c":-405.7000122,"reactive_power_total":-273.2000122,"reactive_power_a":64.80000305,"reactive_power_b":-219.3999939,"reactive_power_c":-118.5999985,"power_factor_total":-0.768999994,"power_factor_a":-0.324999988,"power_factor_b":-0.870000005,"power_factor_c":-0.944999993,"frequency":50,"forward_active_energy_total":192.9100037,"reverse_active_energy_total":281.0499878}
15:32:48.637 -> Meter values updated from MQTT
15:32:48.729 -> RS485 RX: 03 20 00 00 12 CE 52 
15:32:49.229 -> RS485 RX: 04 03 20 00 00 12 CE 52 
15:32:49.275 -> RS485 TX: 04 03 24 43 D1 CC CD 43 D2 59 9A 43 D2 D9 9A 43 72 E6 66 43 71 B3 33 43 74 19 9A 3F 59 99 9A 40 05 81 06 3F E3 95 81 54 80 
15:32:49.401 -> RS485 RX: 04 03 20 12 00 10 EF 96 
15:32:49.437 -> RS485 TX: 04 03 20 C4 5A 86 66 C2 36 CC CD C3 D3 4C CD C3 CA D9 9A C3 88 99 9A 42 81 99 9A C3 5B 66 66 C2 ED 33 33 93 C3 
15:32:49.536 -> RS485 RX: 04 03 20 2A 00 1C 6E 5E 
15:32:49.623 -> RS485 TX: 04 03 38 BA 49 96 B7 B9 AA 64 C3 BA 64 10 B6 BA 77 B9 E0 00 00 00 00 00 00 00 00 00 00 00 00 00 00 00 00 00 00 00 00 00 00 00 00 00 00 00 00 00 00 00 00 00 00 00 00 42 48 00 00 5C 62 
15:32:49.715 -> RS485 RX: 04 03 20 12 00 10 EF 96 
15:32:49.755 -> RS485 TX: 04 03 20 C4 5A 86 66 C2 36 CC CD C3 D3 4C CD C3 CA D9 9A C3 88 99 9A 42 81 99 9A C3 5B 66 66 C2 ED 33 33 93 C3 
15:32:49.976 -> RS485 RX: 04 03 10 1E 00 0C 21 5C 
15:32:50.016 -> RS485 TX: 04 03 18 00 02 F1 8E 00 00 00 00 00 00 00 00 00 00 00 00 00 00 00 00 00 04 49 DA 5D 2F 
15:32:50.106 -> RS485 RX: 04 03 20 12 00 10 EF 96 
15:32:50.150 -> RS485 TX: 04 03 20 C4 5A 86 66 C2 36 CC CD C3 D3 4C CD C3 CA D9 9A C3 88 99 9A 42 81 99 9A C3 5B 66 66 C2 ED 33 33 93 C3 
15:32:50.150 -> Message arrived [dtsu666/data] {"voltage_ab":419.6000061,"voltage_bc":420.2999878,"voltage_ca":421.2000122,"voltage_a":242.8000031,"voltage_b":241.8000031,"voltage_c":243.6000061,"current_a":1.036000013,"current_b":2.490999937,"current_c":2.163000107,"active_power_total":-1180.300049,"active_power_a":-140,"active_power_b":-538.5999756,"active_power_c":-501.5,"reactive_power_total":-264,"reactive_power_a":63,"reactive_power_b":-207.5,"reactive_power_c":-119.5999985,"power_factor_total":-0.861000001,"power_factor_a":-0.561999977,"power_factor_b":-0.899999976,"power_factor_c":-0.958000004,"frequency":50,"forward_active_energy_total":192.9100037,"reverse_active_energy_total":281.0499878}
15:32:50.238 -> Meter values updated from MQTT
15:32:50.326 -> RS485 RX: 04 03 00 06 00 02 24 5F 
15:32:50.370 -> RS485 TX: 04 03 04 00 0A 00 01 4E F1 
15:32:50.452 -> RS485 RX: 04 03 20 12 00 10 EF 96 
15:32:50.492 -> RS485 TX: 04 03 20 C4 93 89 9A C3 0C 00 00 C4 06 A6 66 C3 FA C0 00 C3 84 00 00 42 7C 00 00 C3 4F 80 00 C2 EF 33 33 7E 18 
15:32:50.619 -> RS485 RX: 04 03 20 00 00 12 CE 52 
15:32:50.668 -> RS485 TX: 04 03 24 43 D1 CC CD 43 D2 26 66 43 D2 99 9A 43 72 CC CD 43 71 CC CD 43 73 99 9A 3F 84 9B A6 40 1F 6C 8B 40 0A 6E 98 63 44 
15:32:50.760 -> RS485 RX: 04 03 20 12 00 10 EF 96 
15:32:50.804 -> RS485 TX: 04 03 20 C4 93 89 9A C3 0C 00 00 C4 06 A6 66 C3 FA C0 00 C3 84 00 00 42 7C 00 00 C3 4F 80 00 C2 EF 33 33 7E 18 
15:32:50.890 -> RS485 RX: 04 03 20 2A 00 1C 6E 5E 
15:32:50.983 -> RS485 TX: 04 03 38 BA 61 B4 BB BA 13 53 2E BA 6B ED FA BA 7B 22 4B 00 00 00 00 00 00 00 00 00 00 00 00 00 00 00 00 00 00 00 00 00 00 00 00 00 00 00 00 00 00 00 00 00 00 00 00 42 48 00 00 9F 07 
15:32:51.070 -> RS485 RX: 04 03 20 12 00 10 
15:32:51.162 -> RS485 RX: EF 96 
15:32:51.669 -> RS485 RX: 04 03 20 12 00 10 
15:32:51.805 -> RS485 RX: EF 96 
15:32:51.897 -> Message arrived [dtsu666/data] {"voltage_ab":419.7000122,"voltage_bc":420.6000061,"voltage_ca":421.3999939,"voltage_a":242.8000031,"voltage_b":241.8999939,"voltage_c":243.8000031,"current_a":1.210000038,"current_b":3.11500001,"current_c":2.447000027,"active_power_total":-1497.400024,"active_power_a":-212,"active_power_b":-706.7000122,"active_power_c":-578.5999756,"reactive_power_total":-250.3000031,"reactive_power_a":63.90000153,"reactive_power_b":-195.1000061,"reactive_power_c":-119.0999985,"power_factor_total":-0.916000009,"power_factor_a":-0.723999977,"power_factor_b":-0.947000027,"power_factor_c":-0.972000003,"frequency":50.00999832,"forward_active_energy_total":192.9100037,"reverse_active_energy_total":281.0499878}
15:32:51.937 -> Meter values updated from MQTT
15:32:52.342 -> RS485 RX: 04 03 20 12 00 10 EF 96 
15:32:52.388 -> RS485 TX: 04 03 20 C4 BB 2C CD C3 54 00 00 C4 30 AC CD C4 10 A6 66 C3 7A 4C CD 42 7F 99 9A C3 43 19 9A C2 EE 33 33 15 74 
15:32:52.506 -> RS485 RX: 04 03 10 1E 00 0C 21 5C 
15:32:52.552 -> RS485 TX: 04 03 18 00 02 F1 8E 00 00 00 00 00 00 00 00 00 00 00 00 00 00 00 00 00 04 49 DA 5D 2F 
15:32:52.639 -> RS485 RX: 04 03 20 12 00 10 EF 96 
15:32:52.684 -> RS485 TX: 04 03 20 C4 BB 2C CD C3 54 00 00 C4 30 AC CD C4 10 A6 66 C3 7A 4C CD 42 7F 99 9A C3 43 19 9A C2 EE 33 33 15 74 
15:32:52.801 -> RS485 RX: 04 03 00 06 00 02 24 5F 
15:32:52.801 -> RS485 TX: 04 03 04 00 0A 00 01 4E F1 
15:32:52.881 -> RS485 RX: 04 03 20 12 00 10 EF 96 
15:32:52.969 -> RS485 TX: 04 03 20 C4 BB 2C CD C3 54 00 00 C4 30 AC CD C4 10 A6 66 C3 7A 4C CD 42 7F 99 9A C3 43 19 9A C2 EE 33 33 15 74 
15:32:53.060 -> RS485 RX: 04 03 20 00 00 12 CE 52 
15:32:53.108 -> RS485 TX: 04 03 24 43 D1 D9 9A 43 D2 4C CD 43 D2 B3 33 43 72 CC CD 43 71 E6 66 43 73 CC CD 3F 9A E1 48 40 47 5C 29 40 1C 9B A6 31 C4 
15:32:53.198 -> RS485 RX: 04 03 20 12 00 10 EF 96 
15:32:53.242 -> RS485 TX: 04 03 20 C4 BB 2C CD C3 54 00 00 C4 30 AC CD C4 10 A6 66 C3 7A 4C CD 42 7F 99 9A C3 43 19 9A C2 EE 33 33 15 74 
15:32:53.370 -> RS485 RX: 04 03 20 2A 00 1C 6E 5E 
15:32:53.410 -> RS485 TX: 04 03 38 BA 70 1F B8 BA 3D CA D1 BA 78 40 19 BA 7E CD D1 00 00 00 00 00 00 00 00 00 00 00 00 00 00 00 00 00 00 00 00 00 00 00 00 00 00 00 00 00 00 00 00 00 00 00 00 42 48 0A 3D F0 49 
15:32:53.454 -> Message arrived [dtsu666/data] {"voltage_ab":420.1000061,"voltage_bc":420.2999878,"voltage_ca":421.2000122,"voltage_a":243.1000061,"voltage_b":242.1000061,"voltage_c":243.3000031,"current_a":1.389000058,"current_b":3.803999901,"current_c":2.443000078,"active_power_total":-1779.199951,"active_power_a":-312.6000061,"active_power_b":-887.5999756,"active_power_c":-568,"reactive_power_total":-252.5,"reactive_power_a":27.39999962,"reactive_power_b":-158.8999939,"reactive_power_c":-121,"power_factor_total":-0.973999977,"power_factor_a":-0.970000029,"power_factor_b":-0.976999998,"power_factor_c":-0.968999982,"frequency":50.00999832,"forward_active_energy_total":192.9100037,"reverse_active_energy_total":281.0499878}
15:32:53.495 -> Meter values updated from MQTT
15:32:53.629 -> RS485 RX: 04 03 20 12 00 10 EF 96 
15:32:53.676 -> RS485 TX: 04 03 20 C4 DE 66 66 C3 9C 4C CD C4 5D E6 66 C4 0E 00 00 C3 7C 80 00 41 DB 33 33 C3 1E E6 66 C2 F2 00 00 73 0F 
15:32:53.766 -> RS485 RX: 04 03 10 1E 00 0C 21 5C 
15:32:53.810 -> RS485 TX: 04 03 18 00 02 F1 8E 00 00 00 00 00 00 00 00 00 00 00 00 00 00 00 00 00 04 49 DA 5D 2F 
15:32:53.904 -> RS485 RX: 04 03 20 12 00 10 EF 96 
15:32:53.948 -> RS485 TX: 04 03 20 C4 DE 66 66 C3 9C 4C CD C4 5D E6 66 C4 0E 00 00 C3 7C 80 00 41 DB 33 33 C3 1E E6 66 C2 F2 00 00 73 0F 
15:32:54.039 -> RS485 RX: 04 03 00 06 00 02 24 5F 
15:32:54.084 -> RS485 TX: 04 03 04 00 0A 00 01 4E F1 
15:32:54.175 -> RS485 RX: 04 03 20 12 00 10 EF 96 
15:32:54.223 -> RS485 TX: 04 03 20 C4 DE 66 66 C3 9C 4C CD C4 5D E6 66 C4 0E 00 00 C3 7C 80 00 41 DB 33 33 C3 1E E6 66 C2 F2 00 00 73 0F 
15:32:54.315 -> RS485 RX: 04 03 20 00 00 12 CE 52 
15:32:54.356 -> RS485 TX: 04 03 24 43 D2 0C CD 43 D2 26 66 43 D2 99 9A 43 73 19 9A 43 72 19 9A 43 73 4C CD 3F B1 CA C1 40 73 74 BC 40 1C 5A 1D 35 C1 
15:32:54.482 -> RS485 RX: 04 03 20 12 00 10 EF 96 
15:32:54.526 -> RS485 TX: 04 03 20 C4 DE 66 66 C3 9C 4C CD C4 5D E6 66 C4 0E 00 00 C3 7C 80 00 41 DB 33 33 C3 1E E6 66 C2 F2 00 00 73 0F 
15:32:54.621 -> RS485 RX: 04 03 20 2A 00 1C 6E 5E 
15:32:54.698 -> RS485 TX: 04 03 38 BA 7F 54 08 BA 7E 47 9A BA 80 0E AE BA 7E 04 7D 00 00 00 00 00 00 00 00 00 00 00 00 00 00 00 00 00 00 00 00 00 00 00 00 00 00 00 00 00 00 00 00 00 00 00 00 42 48 0A 3D 1D 71 
15:32:54.777 -> RS485 RX: 04 03 20 12 00 10 EF 96 
15:32:54.824 -> RS485 TX: 04 03 20 C4 DE 66 66 C3 9C 4C CD C4 5D E6 66 C4 0E 00 00 C3 7C 80 00 41 DB 33 33 C3 1E E6 66 C2 F2 00 00 73 0F 
15:32:54.964 -> RS485 RX: 04 03 10 1E 00 0C 21 5C 
15:32:54.964 -> RS485 TX: 04 03 18 00 02 F1 8E 00 00 00 00 00 00 00 00 00 00 00 00 00 00 00 00 00 04 49 DA 5D 2F 
15:32:55.102 -> RS485 RX: 04 03 20 12 00 10 EF 
15:32:55.102 -> Message arrived [dtsu666/data] {"voltage_ab":420.3999939,"voltage_bc":420.1000061,"voltage_ca":420.7999878,"voltage_a":243.1000061,"voltage_b":242.3999939,"voltage_c":242.8000031,"current_a":1.230000019,"current_b":4.708000183,"current_c":2.221999884,"active_power_total":-1932.199951,"active_power_a":-287.3999939,"active_power_b":-1120.800049,"active_power_c":-523.9000244,"reactive_power_total":-231.3000031,"reactive_power_a":31.79999924,"reactive_power_b":-147.8000031,"reactive_power_c":-115.4000015,"power_factor_total":-0.97299999,"power_factor_a":-0.950999975,"power_factor_b":-0.981000006,"power_factor_c":-0.954999983,"frequency":50.00999832,"forward_active_energy_total":192.9100037,"reverse_active_energy_total":281.0499878}
15:32:55.149 -> Meter values updated from MQTT
15:32:55.236 -> RS485 RX: 96 
15:32:55.768 -> RS485 RX: 04 03 20 12 00 10 EF 96 
15:32:55.808 -> RS485 TX: 04 03 20 C4 F1 86 66 C3 8F B3 33 C4 8C 19 9A C4 02 F9 9A C3 67 4C CD 41 FE 66 66 C3 13 CC CD C2 E6 CC CD 2B E5 
15:32:55.901 -> RS485 RX: 04 03 00 06 00 02 24 5F 
15:32:55.901 -> RS485 TX: 04 03 04 00 0A 00 01 4E F1 
15:32:55.998 -> RS485 RX: 04 03 20 12 00 10 EF 96 
15:32:56.084 -> RS485 TX: 04 03 20 C4 F1 86 66 C3 8F B3 33 C4 8C 19 9A C4 02 F9 9A C3 67 4C CD 41 FE 66 66 C3 13 CC CD C2 E6 CC CD 2B E5 
15:32:56.180 -> RS485 RX: 04 03 20 00 00 12 CE 52 
15:32:56.223 -> RS485 TX: 04 03 24 43 D2 33 33 43 D2 0C CD 43 D2 66 66 43 73 19 9A 43 72 66 66 43 72 CC CD 3F 9D 70 A4 40 96 A7 F0 40 0E 35 3F EB E1 
15:32:56.315 -> RS485 RX: 04 03 20 12 00 10 EF 96 
15:32:56.359 -> RS485 TX: 04 03 20 C4 F1 86 66 C3 8F B3 33 C4 8C 19 9A C4 02 F9 9A C3 67 4C CD 41 FE 66 66 C3 13 CC CD C2 E6 CC CD 2B E5 
15:32:56.479 -> RS485 RX: 04 03 20 2A 00 1C 6E 5E 
15:32:56.527 -> RS485 TX: 04 03 38 BA 7F 10 ED BA 79 4C 87 BA 80 94 E6 BA 7A 58 F7 00 00 00 00 00 00 00 00 00 00 00 00 00 00 00 00 00 00 00 00 00 00 00 00 00 00 00 00 00 00 00 00 00 00 00 00 42 48 0A 3D 1E 54 
15:32:56.658 -> RS485 RX: 04 03 20 12 00 10 EF 96 
15:32:56.692 -> RS485 TX: 04 03 20 C4 F1 86 66 C3 8F B3 33 C4 8C 19 9A C4 02 F9 9A C3 67 4C CD 41 FE 66 66 C3 13 CC CD C2 E6 CC CD 2B E5 
15:32:56.803 -> RS485 RX: 04 03 10 1E 00 0C 21 5C 
15:32:56.846 -> RS485 TX: 04 03 18 00 02 F1 8E 00 00 00 00 00 00 00 00 00 00 00 00 00 00 00 00 00 04 49 DA 5D 2F 
15:32:56.846 -> Message arrived [dtsu666/data] {"voltage_ab":420.1000061,"voltage_bc":419.7999878,"voltage_ca":420.3999939,"voltage_a":242.8999939,"voltage_b":242.1999969,"voltage_c":242.6000061,"current_a":0.677999973,"current_b":3.392999887,"current_c":1.618999958,"active_power_total":-1245.699951,"active_power_a":-68.40000153,"active_power_b":-808,"active_power_c":-369.2000122,"reactive_power_total":-232.8000031,"reactive_power_a":46.09999847,"reactive_power_b":-160.5,"reactive_power_c":-118.5,"power_factor_total":-0.89200002,"power_factor_a":-0.419,"power_factor_b":-0.964999974,"power_factor_c":-0.931999981,"frequency":50.00999832,"forward_active_energy_total":192.9100037,"reverse_active_energy_total":281.0499878}
15:32:56.890 -> Meter values updated from MQTT
15:32:56.989 -> RS485 RX: 04 03 20 12 00 10 EF 96 
15:32:57.061 -> RS485 TX: 04 03 20 C4 9B B6 66 C2 88 CC CD C4 4A 00 00 C3 B8 99 9A C3 68 CC CD 42 38 66 66 C3 20 80 00 C2 ED 00 00 EC DB 
15:32:57.148 -> RS485 RX: 04 03 00 06 00 02 24 5F 
15:32:57.188 -> RS485 TX: 04 03 04 00 0A 00 01 4E F1 
15:32:57.772 -> RS485 RX: 04 03 00 06 00 02 24 5F 
15:32:57.772 -> RS485 TX: 04 03 04 00 0A 00 01 4E F1 
15:32:57.893 -> RS485 RX: 04 03 20 12 00 10 EF 96 
15:32:57.930 -> RS485 TX: 04 03 20 C4 9B B6 66 C2 88 CC CD C4 4A 00 00 C3 B8 99 9A C3 68 CC CD 42 38 66 66 C3 20 80 00 C2 ED 00 00 EC DB 
15:32:58.063 -> RS485 RX: 04 03 20 00 00 12 CE 52 
15:32:58.110 -> RS485 TX: 04 03 24 43 D2 0C CD 43 D1 E6 66 43 D2 33 33 43 72 E6 66 43 72 33 33 43 72 99 9A 3F 2D 91 68 40 59 26 E9 3F CF 3B 64 02 B4 
15:32:58.198 -> RS485 RX: 04 03 20 12 00 10 EF 96 
15:32:58.242 -> RS485 TX: 04 03 20 C4 9B B6 66 C2 88 CC CD C4 4A 00 00 C3 B8 99 9A C3 68 CC CD 42 38 66 66 C3 20 80 00 C2 ED 00 00 EC DB 
15:32:58.330 -> RS485 RX: 04 03 20 2A 00 1C 6E 5E 
15:32:58.414 -> RS485 TX: 04 03 38 BA 69 D5 1C B9 DB AD 3A BA 7C F8 0D BA 74 51 76 00 00 00 00 00 00 00 00 00 00 00 00 00 00 00 00 00 00 00 00 00 00 00 00 00 00 00 00 00 00 00 00 00 00 00 00 42 48 0A 3D D2 8F 
15:32:58.454 -> Message arrived [dtsu666/data] {"voltage_ab":419.8999939,"voltage_bc":419.7000122,"voltage_ca":420.2999878,"voltage_a":242.8000031,"voltage_b":242.1000061,"voltage_c":242.6000061,"current_a":1.154000044,"current_b":2.170000076,"current_c":1.300999999,"active_power_total":-690.7000122,"active_power_a":76.30000305,"active_power_b":-484.7999878,"active_power_c":-282.2000122,"reactive_power_total":-227.1999969,"reactive_power_a":57.20000076,"reactive_power_b":-159.8999939,"reactive_power_c":-124.5,"power_factor_total":-0.648999989,"power_factor_a":0.363000005,"power_factor_b":-0.907000005,"power_factor_c":-0.887000024,"frequency":50.00999832,"forward_active_energy_total":192.9100037,"reverse_active_energy_total":281.0499878}
15:32:58.495 -> Meter values updated from MQTT
15:32:58.583 -> RS485 RX: 04 03 20 12 00 10 EF 96 
15:32:58.627 -> RS485 TX: 04 03 20 C4 2C AC CD 42 98 99 9A C3 F2 66 66 C3 8D 19 9A C3 63 33 33 42 64 CC CD C3 1F E6 66 C2 F9 00 00 AD AF 
15:32:58.750 -> RS485 RX: 04 03 10 1E 00 0C 21 5C 
15:32:58.794 -> RS485 TX: 04 03 18 00 02 F1 8E 00 00 00 00 00 00 00 00 00 00 00 00 00 00 00 00 00 04 49 DA 5D 2F 
15:32:58.879 -> RS485 RX: 04 03 20 12 00 10 
15:32:58.966 -> RS485 RX: EF 96 
15:32:59.497 -> RS485 RX: 04 03 20 12 00 10 
15:32:59.589 -> RS485 RX: EF 96 
15:33:00.082 -> RS485 RX: 04 03 20 12 00 10 
15:33:00.082 -> Message arrived [dtsu666/data] {"voltage_ab":419.7999878,"voltage_bc":419.5,"voltage_ca":420.2999878,"voltage_a":242.8999939,"voltage_b":241.8999939,"voltage_c":242.5,"current_a":0.938000023,"current_b":1.710000038,"current_c":1.131999969,"active_power_total":-464.2000122,"active_power_a":124.1999969,"active_power_b":-352.8999939,"active_power_c":-235.5,"reactive_power_total":-247.6999969,"reactive_power_a":54.70000076,"reactive_power_b":-175.8000031,"reactive_power_c":-126.5999985,"power_factor_total":-0.446999997,"power_factor_a":0.579999983,"power_factor_b":-0.800999999,"power_factor_c":-0.834999979,"frequency":50.00999832,"forward_active_energy_total":192.9100037,"reverse_active_energy_total":281.0499878}
15:33:00.169 -> Meter values updated from MQTT
15:33:00.257 -> RS485 RX: EF 96 
15:33:00.750 -> RS485 RX: 04 03 20 12 00 10 EF 96 
15:33:00.794 -> RS485 TX: 04 03 20 C3 E8 19 9A 42 F8 66 66 C3 B0 73 33 C3 6B 80 00 C3 77 B3 33 42 5A CC CD C3 2F CC CD C2 FD 33 33 02 B9 
15:33:00.885 -> RS485 RX: 04 03 00 06 00 02 24 5F 
15:33:00.918 -> RS485 TX: 04 03 04 00 0A 00 01 4E F1 
15:33:01.000 -> RS485 RX: 04 03 20 12 00 10 EF 96 
15:33:01.053 -> RS485 TX: 04 03 20 C3 E8 19 9A 42 F8 66 66 C3 B0 73 33 C3 6B 80 00 C3 77 B3 33 42 5A CC CD C3 2F CC CD C2 FD 33 33 02 B9 
15:33:01.185 -> RS485 RX: 04 03 20 00 00 12 CE 52 
15:33:01.226 -> RS485 TX: 04 03 24 43 D1 E6 66 43 D1 C0 00 43 D2 26 66 43 72 E6 66 43 71 E6 66 43 72 80 00 3F 70 20 C5 3F DA E1 48 3F 90 E5 60 4A F8 
15:33:01.318 -> RS485 RX: 04 03 20 12 00 10 EF 96 
15:33:01.362 -> RS485 TX: 04 03 20 C3 E8 19 9A 42 F8 66 66 C3 B0 73 33 C3 6B 80 00 C3 77 B3 33 42 5A CC CD C3 2F CC CD C2 FD 33 33 02 B9 
15:33:01.666 -> Message arrived [dtsu666/data] {"voltage_ab":419.6000061,"voltage_bc":419.2999878,"voltage_ca":420.1000061,"voltage_a":242.8000031,"voltage_b":241.8000031,"voltage_c":242.3999939,"current_a":0.991999984,"current_b":1.422000051,"current_c":1.031000018,"active_power_total":-305,"active_power_a":149.6000061,"active_power_b":-249.6999969,"active_power_c":-205,"reactive_power_total":-255.5,"reactive_power_a":56.90000153,"reactive_power_b":-188.3000031,"reactive_power_c":-124.0999985,"power_factor_total":-0.363000005,"power_factor_a":0.620999992,"power_factor_b":-0.671000004,"power_factor_c":-0.811999977,"frequency":50.00999832,"forward_active_energy_total":192.9100037,"reverse_active_energy_total":281.0499878}
15:33:01.758 -> Meter values updated from MQTT
15:33:01.933 -> RS485 RX: 04 03 20 12 00 10 EF 96 
15:33:01.977 -> RS485 TX: 04 03 20 C3 98 80 00 43 15 99 9A C3 79 B3 33 C3 4D 00 00 C3 7F 80 00 42 63 99 9A C3 3C 4C CD C2 F8 33 33 B6 A7 
15:33:02.073 -> RS485 RX: 04 03 20 2A 00 
15:33:02.207 -> RS485 RX: 1C 6E 5E 
15:33:02.697 -> RS485 RX: 04 03 20 2A 00 
15:33:02.797 -> RS485 RX: 1C 6E 5E 
15:33:03.298 -> RS485 RX: 04 03 20 2A 00 
15:33:03.376 -> RS485 RX: 1C 6E 5E 
15:33:03.376 -> Message arrived [dtsu666/data] {"voltage_ab":419.6000061,"voltage_bc":419.3999939,"voltage_ca":420.2000122,"voltage_a":242.6999969,"voltage_b":241.6999969,"voltage_c":242.6000061,"current_a":1.050999999,"current_b":1.289000034,"current_c":0.994000018,"active_power_total":-211.3000031,"active_power_a":164.8999939,"active_power_b":-182.3999939,"active_power_c":-193.8999939,"reactive_power_total":-266.5,"reactive_power_a":58.40000153,"reactive_power_b":-200.3999939,"reactive_power_c":-124.5,"power_factor_total":-0.25999999,"power_factor_a":0.648999989,"power_factor_b":-0.583000004,"power_factor_c":-0.801999986,"frequency":50.00999832,"forward_active_energy_total":192.9100037,"reverse_active_energy_total":281.0499878}
15:33:03.467 -> Meter values updated from MQTT
15:33:03.940 -> RS485 RX: 04 03 20 2A 00 1C 6E 5E 
15:33:04.032 -> RS485 TX: 04 03 38 B9 88 50 9C 3A 2A 21 A7 BA 18 D4 78 BA 52 3D 4F 00 00 00 00 00 00 00 00 00 00 00 00 00 00 00 00 00 00 00 00 00 00 00 00 00 00 00 00 00 00 00 00 00 00 00 00 42 48 0A 3D 82 4F 
15:33:04.122 -> RS485 RX: 04 03 20 12 00 10 EF 96 
15:33:04.166 -> RS485 TX: 04 03 20 C3 53 4C CD 43 24 E6 66 C3 36 66 66 C3 41 E6 66 C3 85 40 00 42 69 99 9A C3 48 66 66 C2 F9 00 00 E5 62 
15:33:04.382 -> RS485 RX: 04 03 10 1E 00 0C 21 5C 
15:33:04.422 -> RS485 TX: 04 03 18 00 02 F1 8E 00 00 00 00 00 00 00 00 00 00 00 00 00 00 00 00 00 04 49 DA 5D 2F 
15:33:04.510 -> RS485 RX: 04 03 20 12 00 10 EF 96 
15:33:04.552 -> RS485 TX: 04 03 20 C3 53 4C CD 43 24 E6 66 C3 36 66 66 C3 41 E6 66 C3 85 40 00 42 69 99 9A C3 48 66 66 C2 F9 00 00 E5 62 
15:33:04.687 -> RS485 RX: 04 03 00 06 00 02 24 5F 
15:33:04.687 -> RS485 TX: 04 03 04 00 0A 00 01 4E F1 
15:33:04.771 -> RS485 RX: 04 03 20 12 00 10 EF 96 
15:33:04.815 -> RS485 TX: 04 03 20 C3 53 4C CD 43 24 E6 66 C3 36 66 66 C3 41 E6 66 C3 85 40 00 42 69 99 9A C3 48 66 66 C2 F9 00 00 E5 62 
15:33:04.949 -> RS485 RX: 04 03 20 00 00 12 CE 52 
15:33:04.993 -> RS485 TX: 04 03 24 43 D1 CC CD 43 D1 B3 33 43 D2 19 9A 43 72 B3 33 43 71 B3 33 43 72 99 9A 3F 86 87 2B 3F A4 FD F4 3F 7E 76 C9 6C 7F 
15:33:04.993 -> Message arrived [dtsu666/data] {"voltage_ab":419.5,"voltage_bc":419.5,"voltage_ca":420.1000061,"voltage_a":242.6000061,"voltage_b":241.8000031,"voltage_c":242.6000061,"current_a":0.973999977,"current_b":1.263000011,"current_c":0.985000014,"active_power_total":-210,"active_power_a":156.3000031,"active_power_b":-175.6000061,"active_power_c":-190.6999969,"reactive_power_total":-276.6000061,"reactive_power_a":53.29999924,"reactive_power_b":-203.5,"reactive_power_c":-126.5,"power_factor_total":-0.268000007,"power_factor_a":0.654999971,"power_factor_b":-0.574999988,"power_factor_c":-0.797999978,"frequency":50.00999832,"forward_active_energy_total":192.9100037,"reverse_active_energy_total":281.0499878}
15:33:05.077 -> Meter values updated from MQTT
15:33:05.155 -> RS485 RX: 04 03 20 12 00 10 EF 96 
15:33:05.189 -> RS485 TX: 04 03 20 C3 52 00 00 43 1C 4C CD C3 2F 99 9A C3 3E B3 33 C3 8A 4C CD 42 55 33 33 C3 4B 80 00 C2 FD 00 00 BF 3D 
15:33:05.315 -> RS485 RX: 04 03 20 2A 00 1C 6E 5E 
15:33:05.397 -> RS485 TX: 04 03 38 B9 8C 82 5A 3A 2B B4 4E BA 16 BB 99 BA 51 30 DF 00 00 00 00 00 00 00 00 00 00 00 00 00 00 00 00 00 00 00 00 00 00 00 00 00 00 00 00 00 00 00 00 00 00 00 00 42 48 0A 3D 4A DF 
15:33:05.488 -> RS485 RX: 04 03 20 12 00 10 EF 96 
15:33:05.534 -> RS485 TX: 04 03 20 C3 52 00 00 43 1C 4C CD C3 2F 99 9A C3 3E B3 33 C3 8A 4C CD 42 55 33 33 C3 4B 80 00 C2 FD 00 00 BF 3D 
15:33:05.657 -> RS485 RX: 04 03 10 1E 00 0C 21 5C 
15:33:05.657 -> RS485 TX: 04 03 18 00 02 F1 8E 00 00 00 00 00 00 00 00 00 00 00 00 00 00 00 00 00 04 49 DA 5D 2F 
15:33:05.880 -> RS485 RX: 04 03 20 12 00 10 EF 96 
15:33:05.924 -> RS485 TX: 04 03 20 C3 52 00 00 43 1C 4C CD C3 2F 99 9A C3 3E B3 33 C3 8A 4C CD 42 55 33 33 C3 4B 80 00 C2 FD 00 00 BF 3D 
15:33:06.019 -> RS485 RX: 04 03 00 06 00 02 24 5F 
15:33:06.053 -> RS485 TX: 04 03 04 00 0A 00 01 4E F1 
15:33:06.136 -> RS485 RX: 04 03 20 12 00 10 EF 96 
15:33:06.180 -> RS485 TX: 04 03 20 C3 52 00 00 43 1C 4C CD C3 2F 99 9A C3 3E B3 33 C3 8A 4C CD 42 55 33 33 C3 4B 80 00 C2 FD 00 00 BF 3D 
15:33:06.299 -> RS485 RX: 04 03 20 00 00 12 CE 52 
15:33:06.344 -> RS485 TX: 04 03 24 43 D1 C0 00 43 D1 C0 00 43 D2 0C CD 43 72 99 9A 43 71 CC CD 43 72 99 9A 3F 79 58 10 3F A1 A9 FC 3F 7C 28 F6 84 1B 
15:33:06.430 -> RS485 RX: 04 03 20 12 00 10 EF 96 
15:33:06.507 -> RS485 TX: 04 03 20 C3 52 00 00 43 1C 4C CD C3 2F 99 9A C3 3E B3 33 C3 8A 4C CD 42 55 33 33 C3 4B 80 00 C2 FD 00 00 BF 3D 
15:33:06.595 -> RS485 RX: 04 03 20 2A 00 1C 6E 5E 
15:33:06.673 -> RS485 TX: 04 03 38 B9 8C 82 5A 3A 2B B4 4E BA 16 BB 99 BA 51 30 DF 00 00 00 00 00 00 00 00 00 00 00 00 00 00 00 00 00 00 00 00 00 00 00 00 00 00 00 00 00 00 00 00 00 00 00 00 42 48 0A 3D 4A DF 
15:33:06.673 -> Message arrived [dtsu666/data] {"voltage_ab":419.2999878,"voltage_bc":419.5,"voltage_ca":420.1000061,"voltage_a":242.3999939,"voltage_b":241.8000031,"voltage_c":242.6999969,"current_a":0.939999998,"current_b":1.274999976,"current_c":0.992999971,"active_power_total":-234.6000061,"active_power_a":145.5,"active_power_b":-184.3000031,"active_power_c":-195.8000031,"reactive_power_total":-273.7000122,"reactive_power_a":53.70000076,"reactive_power_b":-204.3000031,"reactive_power_c":-125.8000031,"power_factor_total":-0.282000005,"power_factor_a":0.651000023,"power_factor_b":-0.583000004,"power_factor_c":-0.806999981,"frequency":50.00999832,"forward_active_energy_total":192.9100037,"reverse_active_energy_total":281.0499878}
15:33:06.753 -> Meter values updated from MQTT
15:33:07.232 -> RS485 RX: 04 03 20 2A 00 1C 6E 5E 
15:33:07.324 -> RS485 TX: 04 03 38 B9 93 D9 66 3A 2A A7 DF BA 18 D4 78 BA 53 8C DA 00 00 00 00 00 00 00 00 00 00 00 00 00 00 00 00 00 00 00 00 00 00 00 00 00 00 00 00 00 00 00 00 00 00 00 00 42 48 0A 3D 6A 96 
15:33:07.412 -> RS485 RX: 04 03 20 12 00 10 EF 96 
15:33:07.494 -> RS485 TX: 04 03 20 C3 6A 99 9A 43 11 80 00 C3 38 4C CD C3 43 CC CD C3 88 D9 9A 42 56 CC CD C3 4C 4C CD C2 FB 99 9A 6A 6C 
15:33:07.693 -> RS485 RX: 04 03 10 1E 00 0C 21 5C 
15:33:07.735 -> RS485 TX: 04 03 18 00 02 F1 8E 00 00 00 00 00 00 00 00 00 00 00 00 00 00 00 00 00 04 49 DA 5D 2F 
15:33:07.821 -> RS485 RX: 04 03 20 12 00 10 EF 96 
15:33:07.864 -> RS485 TX: 04 03 20 C3 6A 99 9A 43 11 80 00 C3 38 4C CD C3 43 CC CD C3 88 D9 9A 42 56 CC CD C3 4C 4C CD C2 FB 99 9A 6A 6C 
15:33:07.961 -> RS485 RX: 04 03 00 06 00 02 24 5F 
15:33:08.009 -> RS485 TX: 04 03 04 00 0A 00 01 4E F1 
15:33:08.101 -> RS485 RX: 04 03 20 12 00 10 EF 
15:33:08.204 -> RS485 RX: 96 
15:33:08.408 -> Message arrived [dtsu666/data] {"voltage_ab":419.3999939,"voltage_bc":419.5,"voltage_ca":420.1000061,"voltage_a":242.5,"voltage_b":241.8000031,"voltage_c":242.6999969,"current_a":1.003000021,"current_b":1.273000002,"current_c":0.990999997,"active_power_total":-207.3999939,"active_power_a":158.3000031,"active_power_b":-173.6000061,"active_power_c":-192.1000061,"reactive_power_total":-273.8999939,"reactive_power_a":56.5,"reactive_power_b":-205.8999939,"reactive_power_c":-124.5,"power_factor_total":-0.261000007,"power_factor_a":0.648000002,"power_factor_b":-0.563000023,"power_factor_c":-0.795000017,"frequency":50.00999832,"forward_active_energy_total":192.9100037,"reverse_active_energy_total":281.0499878}
15:33:08.452 -> Meter values updated from MQTT
15:33:08.763 -> RS485 RX: 04 03 20 12 00 10 EF 96 
15:33:08.802 -> RS485 TX: 04 03 20 C3 4F 66 66 43 1E 4C CD C3 2D 99 9A C3 40 19 9A C3 88 F3 33 42 62 00 00 C3 4D E6 66 C2 F9 00 00 C2 33 
15:33:08.889 -> RS485 RX: 04 03 20 00 00 12 CE 52 
15:33:08.930 -> RS485 TX: 04 03 24 43 D1 B3 33 43 D1 C0 00 43 D2 0C CD 43 72 80 00 43 71 CC CD 43 72 B3 33 3F 80 62 4E 3F A2 F1 AA 3F 7D B2 2D 09 4D 
15:33:09.059 -> RS485 RX: 04 03 20 12 00 10 EF 96 
15:33:09.103 -> RS485 TX: 04 03 20 C3 4F 66 66 43 1E 4C CD C3 2D 99 9A C3 40 19 9A C3 88 F3 33 42 62 00 00 C3 4D E6 66 C2 F9 00 00 C2 33 
15:33:09.188 -> RS485 RX: 04 03 20 2A 00 1C 6E 5E 
15:33:09.272 -> RS485 TX: 04 03 38 B9 88 D6 D4 3A 29 DE 8B BA 13 96 4B BA 50 67 8C 00 00 00 00 00 00 00 00 00 00 00 00 00 00 00 00 00 00 00 00 00 00 00 00 00 00 00 00 00 00 00 00 00 00 00 00 42 48 0A 3D DB 52 
15:33:09.384 -> RS485 RX: 04 03 20 
15:33:09.470 -> RS485 RX: 12 00 10 EF 96 
15:33:09.959 -> RS485 RX: 04 03 20 
15:33:09.993 -> Message arrived [dtsu666/data] {"voltage_ab":419.3999939,"voltage_bc":419.7000122,"voltage_ca":420.2000122,"voltage_a":242.5,"voltage_b":241.8999939,"voltage_c":242.8000031,"current_a":1.037999988,"current_b":1.258999944,"current_c":0.99000001,"active_power_total":-201.6999969,"active_power_a":163.6999969,"active_power_b":-171.8999939,"active_power_c":-193.3999939,"reactive_power_total":-274.8999939,"reactive_power_a":56.79999924,"reactive_power_b":-205.8000031,"reactive_power_c":-125.9000015,"power_factor_total":-0.252999991,"power_factor_a":0.656000018,"power_factor_b":-0.564999998,"power_factor_c":-0.80400002,"frequency":50.00999832,"forward_active_energy_total":192.9100037,"reverse_active_energy_total":281.0499878}
15:33:10.040 -> Meter values updated from MQTT
15:33:10.164 -> RS485 RX: 12 00 10 EF 96 
15:33:10.643 -> RS485 RX: 04 03 20 12 00 10 EF 96 
15:33:10.690 -> RS485 TX: 04 03 20 C3 49 B3 33 43 23 B3 33 C3 2B E6 66 C3 41 66 66 C3 89 73 33 42 63 33 33 C3 4D CC CD C2 FB CC CD 1D DB 
15:33:10.778 -> RS485 RX: 04 03 10 1E 00 0C 21 5C 
15:33:10.823 -> RS485 TX: 04 03 18 00 02 F1 8E 00 00 00 00 00 00 00 00 00 00 00 00 00 00 00 00 00 04 49 DA 5D 2F 
15:33:10.916 -> RS485 RX: 04 03 20 12 00 10 EF 96 
15:33:11.004 -> RS485 TX: 04 03 20 C3 49 B3 33 43 23 B3 33 C3 2B E6 66 C3 41 66 66 C3 89 73 33 42 63 33 33 C3 4D CC CD C2 FB CC CD 1D DB 
15:33:11.093 -> RS485 RX: 04 03 00 06 
15:33:11.183 -> RS485 RX: 00 02 24 5F 
15:33:11.676 -> RS485 RX: 04 03 00 06 
15:33:11.676 -> Message arrived [dtsu666/data] {"voltage_ab":419.5,"voltage_bc":419.7000122,"voltage_ca":420.2000122,"voltage_a":242.5,"voltage_b":241.8999939,"voltage_c":242.8000031,"current_a":1.029999971,"current_b":1.25999999,"current_c":0.98299998,"active_power_total":-202.8999939,"active_power_a":158.1000061,"active_power_b":-170.6000061,"active_power_c":-190.3999939,"reactive_power_total":-278.7999878,"reactive_power_a":53.70000076,"reactive_power_b":-206,"reactive_power_c":-126.5999985,"power_factor_total":-0.259000003,"power_factor_a":0.660000026,"power_factor_b":-0.56099999,"power_factor_c":-0.799000025,"frequency":50.00999832,"forward_active_energy_total":192.9100037,"reverse_active_energy_total":281.0499878}
15:33:11.769 -> Meter values updated from MQTT
15:33:11.851 -> RS485 RX: 00 02 24 5F 
15:33:12.324 -> RS485 RX: 04 03 00 06 00 02 24 5F 
15:33:12.368 -> RS485 TX: 04 03 04 00 0A 00 01 4E F1 
15:33:12.461 -> RS485 RX: 04 03 20 12 00 10 EF 96 
15:33:12.509 -> RS485 TX: 04 03 20 C3 4A E6 66 43 1E 19 9A C3 2A 99 9A C3 3E 66 66 C3 8B 66 66 42 56 CC CD C3 4E 00 00 C2 FD 33 33 7D 9B 
15:33:12.604 -> RS485 RX: 04 03 20 00 00 12 CE 52 
15:33:12.648 -> RS485 TX: 04 03 24 43 D1 C0 00 43 D1 D9 9A 43 D2 19 9A 43 72 80 00 43 71 E6 66 43 72 CC CD 3F 83 D7 0A 3F A1 47 AE 3F 7B A5 E3 FD C2 
15:33:12.774 -> RS485 RX: 04 03 20 12 00 10 EF 96 
15:33:12.818 -> RS485 TX: 04 03 20 C3 4A E6 66 43 1E 19 9A C3 2A 99 9A C3 3E 66 66 C3 8B 66 66 42 56 CC CD C3 4E 00 00 C2 FD 33 33 7D 9B 
15:33:12.911 -> RS485 RX: 04 03 20 2A 00 1C 6E 5E 
15:33:13.000 -> RS485 TX: 04 03 38 B9 87 CA 64 3A 2D 03 DA BA 13 10 12 BA 51 73 FC 00 00 00 00 00 00 00 00 00 00 00 00 00 00 00 00 00 00 00 00 00 00 00 00 00 00 00 00 00 00 00 00 00 00 00 00 42 48 0A 3D 14 C5 
15:33:13.084 -> RS485 RX: 04 03 20 12 00 10 EF 96 
15:33:13.166 -> RS485 TX: 04 03 20 C3 4A E6 66 43 1E 19 9A C3 2A 99 9A C3 3E 66 66 C3 8B 66 66 42 56 CC CD C3 4E 00 00 C2 FD 33 33 7D 9B 
15:33:13.253 -> RS485 RX: 04 03 10 1E 00 0C 21 5C 
15:33:13.301 -> RS485 TX: 04 03 18 00 02 F1 8E 00 00 00 00 00 00 00 00 00 00 00 00 00 00 00 00 00 04 49 DA 5D 2F 
15:33:13.301 -> Message arrived [dtsu666/data] {"voltage_ab":419.5,"voltage_bc":419.7000122,"voltage_ca":420.2999878,"voltage_a":242.6000061,"voltage_b":241.8999939,"voltage_c":242.8000031,"current_a":1,"current_b":1.248999953,"current_c":0.978999972,"active_power_total":-205.3000031,"active_power_a":160.6000061,"active_power_b":-174,"active_power_c":-191.8000031,"reactive_power_total":-274,"reactive_power_a":53.90000153,"reactive_power_b":-206.3000031,"reactive_power_c":-126.5999985,"power_factor_total":-0.263999999,"power_factor_a":0.656000018,"power_factor_b":-0.57099998,"power_factor_c":-0.797999978,"frequency":50.00999832,"forward_active_energy_total":192.9100037,"reverse_active_energy_total":281.0499878}
15:33:13.350 -> Meter values updated from MQTT
